20250518T082320 | C0 03 01 00 00 1E D4 EF
20250518T082320 | F5 03 00 00 00 0B 11 79
20250518T082320 | F0 03 00 08 00 0C D1 2C
20250518T082320 | 7E FF A0 03 00 08 CD D7
20250518T082321 | 7E FF C1 03 00 08 D2 2B
20250518T082321 | 7E FF 41 03 00 08 FB EB
20250518T082321 | B0 03 00 08 00 44 DF DA
20250518T082321 | B0 03 00 44 03 01 00 B0 00 00 00 03 00 05 03 E8 04 B0 04 88 06 40 00 1E 00 00 05 8C 05 46 05 8C 00 00 02 58 00 00 05 A0 01 E0 04 C4 05 DC 0D AC 0B B8 00 02 00 01 00 00 00 FF 00 00 00 FF 00 00 00 FF 00 00 00 64 00 FF 39 65
20250518T082322 | B0 03 01 00 00 58 5E 2D
20250518T082322 | B0 03 00 58 05 70 00 00 00 00 00 00 00 00 00 00 05 2A 00 87 05 2C FF 79 00 62 11 0C 00 F0 00 00 00 02 05 23 00 00 08 A8 00 64 00 64 FF FF 00 00 00 00 00 F0 00 00 00 00 00 00 00 00 00 01 00 01 00 00 00 00 00 00 00 00 00 00 00 00 00 00 00 00 00 00 00 00 00 00 00 01 00 C0 FF FF CC 78
20250518T082322 | B0 03 00 40 00 26 DE 25 B0 03 00 26 00 03 00 03 00 03 00 01 00 01 00 01 00 01 00 01 00 00 00 00 00 00 00 00 00 00 00 00 00 00 00 00 00 64 00 64 00 64 D2 C9
20250518T082322 | C0 03 01 00 00 1E D4 EF
20250518T082323 | F5 03 00 00 00 0B 11 79
20250518T082323 | F0 03 00 08 00 0C D1 2C
20250518T082323 | 7E FF A0 03 00 08 CD D7
20250518T082323 | 7E FF C1 03 00 08 D2 2B
20250518T082324 | 7E FF 41 03 00 08 FB EB
20250518T082324 | B0 03 00 08 00 44 DF DA
20250518T082324 | B0 03 00 44 03 01 00 B0 00 00 00 03 00 05 03 E8 04 B0 04 88 06 40 00 1E 00 00 05 8C 05 46 05 8C 00 00 02 58 00 00 05 A0 01 E0 04 C4 05 DC 0D AC 0B B8 00 02 00 01 00 00 00 FF 00 00 00 FF 00 00 00 FF 00 00 00 64 00 FF 39 65
20250518T082324 | B0 03 01 00 00 58 5E 2D
20250518T082324 | B0 03 00 58 05 70 00 00 00 00 00 00 00 00 00 00 05 2A 00 85 05 2C FF 7B 00 62 11 4D 00 F0 00 00 00 02 05 23 00 00 08 A8 00 64 00 64 FF FF 00 00 00 00 00 F0 00 00 00 00 00 00 00 00 00 01 00 01 00 00 00 00 00 00 00 00 00 00 00 00 00 00 00 00 00 00 00 00 00 00 00 01 00 C0 FF FF 74 24
20250518T082325 | B0 03 00 40 00 26 DE 25 B0 03 00 26 00 03 00 03 00 03 00 01 00 01 00 01 00 01 00 01 00 00 00 00 00 00 00 00 00 00 00 00 00 00 00 00 00 64 00 64 00 64 D2 C9
20250518T082325 | C0 03 01 00 00 1E D4 EF
20250518T082325 | F5 03 00 00 00 0B 11 79
20250518T082326 | F0 03 00 08 00 0C D1 2C
20250518T082326 | 7E FF A0 03 00 08 CD D7
20250518T082326 | 7E FF C1 03 00 08 D2 2B
20250518T082326 | 7E FF 41 03 00 08 FB EB
20250518T082327 | B0 03 00 08 00 44 DF DA
20250518T082327 | B0 03 00 44 03 01 00 B0 00 00 00 03 00 05 03 E8 04 B0 04 88 06 40 00 1E 00 00 05 8C 05 46 05 8C 00 00 02 58 00 00 05 A0 01 E0 04 C4 05 DC 0D AC 0B B8 00 02 00 01 00 00 00 FF 00 00 00 FF 00 00 00 FF 00 00 00 64 00 FF 39 65
20250518T082327 | B0 03 01 00 00 58 5E 2D
20250518T082327 | B0 03 00 58 05 70 00 00 00 00 00 00 00 00 00 00 05 2A 00 84 05 2C FF 7C 00 62 11 6F 00 F0 00 00 00 02 05 23 00 00 08 A8 00 64 00 64 FF FF 00 00 00 00 00 F0 00 00 00 00 00 00 00 00 00 01 00 01 00 00 00 00 00 00 00 00 00 00 00 00 00 00 00 00 00 00 00 00 00 00 00 01 00 C0 FF FF 72 E4
20250518T082327 | B0 03 00 40 00 26 DE 25 B0 03 00 26 00 03 00 03 00 03 00 01 00 01 00 01 00 01 00 01 00 00 00 00 00 00 00 00 00 00 00 00 00 00 00 00 00 64 00 64 00 64 D2 C9
20250518T082328 | C0 03 01 00 00 1E D4 EF
20250518T082328 | F5 03 00 00 00 0B 11 79
20250518T082328 | F0 03 00 08 00 0C D1 2C
20250518T082328 | 7E FF A0 03 00 08 CD D7
20250518T082329 | 7E FF C1 03 00 08 D2 2B
20250518T082329 | B0 10 01 0E 00 02 00 01 52 AE B0 10 01 0E 00 02 00 01 52 AE
20250518T082330 | B0 03 00 08 00 44 DF DA
20250518T082330 | B0 03 00 44 03 01 00 B0 00 00 00 03 00 05 03 E8 04 B0 04 88 06 40 00 1E 00 00 05 8C 05 46 05 8C 00 00 02 58 00 00 05 A0 01 E0 04 C4 05 DC 0D AC 0B B8 00 02 00 01 00 00 00 FF 00 00 00 FF 00 00 00 FF 00 00 00 64 00 FF 39 65
20250518T082330 | B0 03 01 00 00 58 5E 2D
20250518T082330 | B0 03 00 58 05 6F 00 00 00 00 00 00 00 00 00 00 05 2A 00 84 05 2C FF 7C 00 62 11 6F 00 F0 00 00 00 01 05 23 00 00 08 A8 00 64 00 64 FF FF 00 00 00 00 00 FA 00 00 00 00 00 00 00 00 00 01 00 01 00 00 00 00 00 00 00 00 00 00 00 00 00 00 00 00 00 00 00 00 00 00 00 01 00 C0 FF FF 35 8F
20250518T082330 | B0 03 00 40 00 26 DE 25 B0 03 00 26 00 03 00 03 00 03 00 01 00 01 00 01 00 01 00 01 00 00 00 00 00 00 00 00 00 00 00 00 00 00 00 00 00 64 00 64 00 64 D2 C9
20250518T082331 | C0 03 01 00 00 1E D4 EF
20250518T082331 | F5 03 00 00 00 0B 11 79
20250518T082331 | F0 03 00 08 00 0C D1 2C
20250518T082331 | 7E FF A0 03 00 08 CD D7
20250518T082332 | 7E FF C1 03 00 08 D2 2B
20250518T082332 | 7E FF 41 03 00 08 FB EB
20250518T082332 | B0 03 00 08 00 44 DF DA
20250518T082332 | B0 03 00 44 03 01 00 B0 00 00 00 03 00 05 03 E8 04 B0 04 88 06 40 00 1E 00 00 05 8C 05 46 05 8C 00 00 02 58 00 00 05 A0 01 E0 04 C4 05 DC 0D AC 0B B8 00 02 00 01 00 00 00 FF 00 00 00 FF 00 00 00 FF 00 00 00 64 00 FF 39 65
20250518T082333 | B0 03 01 00 00 58 5E 2D
20250518T082333 | B0 03 00 58 05 70 00 00 00 00 00 00 00 00 00 00 05 2A 00 82 05 2C FF 7E 00 62 11 B3 00 F0 00 00 00 02 05 23 00 00 08 A8 00 64 00 64 FF FF 00 00 00 00 00 F0 00 00 00 00 00 00 00 00 00 01 00 01 00 00 00 00 00 00 00 00 00 00 00 00 00 00 00 00 00 00 00 00 00 00 00 01 00 C0 FF FF 9F B7
20250518T082333 | B0 03 00 40 00 26 DE 25 B0 03 00 26 00 03 00 03 00 03 00 01 00 01 00 01 00 01 00 01 00 00 00 00 00 00 00 00 00 00 00 00 00 00 00 00 00 64 00 64 00 64 D2 C9
20250518T082333 | C0 03 01 00 00 1E D4 EF
20250518T082334 | F5 03 00 00 00 0B 11 79
20250518T082334 | F0 03 00 08 00 0C D1 2C
20250518T082334 | 7E FF A0 03 00 08 CD D7
20250518T082334 | 7E FF C1 03 00 08 D2 2B
20250518T082335 | 7E FF 41 03 00 08 FB EB
20250518T082335 | B0 03 00 08 00 44 DF DA B0 03 00 44 03 01 00 B0 00 00 00 03 00 05 03 E8 04 B0 04 88 06 40 00 1E 00 00 05 8C 05 46 05 8C 00 00 02 58 00 00 05 A0 01 E0 04 C4 05 DC 0D AC 0B B8 00 02 00 01 00 00 00 FF 00 00 00 FF 00 00 00 FF 00 00 00 64 00 FF 39 65
20250518T082335 | B0 03 01 00 00 58 5E 2D B0 03 00 58 05 70 00 00 00 00 00 00 00 00 00 00 05 2A 00 80 05 2D FF 80 00 62 11 FA 00 F0 00 00 00 02 05 23 00 00 08 A8 00 64 00 64 FF FF 00 00 00 00 00 F0 00 00 00 00 00 00 00 00 00 01 00 01 00 00 00 00 00 00 00 00 00 00 00 00 00 00 00 00 00 00 00 00 00 00 00 01 00 C0 FF FF 64 2F
20250518T082336 | B0 03 00 40 00 26 DE 25 B0 03 00 26 00 03 00 03 00 03 00 01 00 01 00 01 00 01 00 01 00 00 00 00 00 00 00 00 00 00 00 00 00 00 00 00 00 64 00 64 00 64 D2 C9
20250518T082336 | C0 03 01 00 00 1E D4 EF
20250518T082336 | F5 03 00 00 00 0B 11 79
20250518T082337 | F0 03 00 08 00 0C D1 2C
20250518T082337 | 7E FF A0 03 00 08 CD D7
20250518T082337 | 7E FF C1 03 00 08 D2 2B
20250518T082337 | 7E FF 41 03 00 08 FB EB
20250518T082338 | B0 03 00 08 00 44 DF DA
20250518T082338 | B0 03 00 44 03 01 00 B0 00 00 00 03 00 05 03 E8 04 B0 04 88 06 40 00 1E 00 00 05 8C 05 46 05 8C 00 00 02 58 00 00 05 A0 01 E0 04 C4 05 DC 0D AC 0B B8 00 02 00 01 00 00 00 FF 00 00 00 FF 00 00 00 FF 00 00 00 64 00 FF 39 65
20250518T082338 | B0 03 01 00 00 58 5E 2D
20250518T082338 | B0 03 00 58 08 D3 00 00 00 00 00 00 00 01 00 00 05 80 00 85 05 68 0B EC 00 62 00 03 00 F0 00 00 00 02 05 38 00 00 48 A8 00 64 00 64 FF FF 00 00 00 00 00 F0 00 00 00 00 00 00 00 00 00 01 00 01 00 00 00 00 00 00 00 00 00 00 00 00 00 00 00 00 00 00 00 00 00 00 00 01 00 C0 FF FF A9 C1
20250518T082338 | B0 03 00 40 00 26 DE 25 B0 03 00 26 00 03 00 03 00 03 00 01 00 01 00 01 00 01 00 01 00 00 00 00 00 00 00 00 00 00 00 00 00 00 00 00 00 64 00 64 00 64 D2 C9
20250518T082339 | C0 03 01 00 00 1E D4 EF
20250518T082339 | F5 03 00 00 00 0B 11 79
20250518T082339 | F0 03 00 08 00 0C D1 2C
20250518T082340 | 7E FF A0 03 00 08 CD D7
20250518T082340 | 7E FF C1 03 00 08 D2 2B
20250518T082340 | 7E FF 41 03 00 08 FB EB
20250518T082340 | B0 03 00 08 00 44 DF DA
20250518T082340 | B0 03 00 44 03 01 00 B0 00 00 00 03 00 05 03 E8 04 B0 04 88 06 40 00 1E 00 00 05 8C 05 46 05 8C 00 00 02 58 00 00 05 A0 01 E0 04 C4 05 DC 0D AC 0B B8 00 02 00 01 00 00 00 FF 00 00 00 FF 00 00 00 FF 00 00 00 64 00 FF 39 65
20250518T082341 | B0 03 01 00 00 58 5E 2D
20250518T082341 | B0 03 00 58 08 DF 00 00 00 00 00 00 00 01 00 00 05 83 00 97 05 6B 0B AD 00 62 00 03 00 F0 00 00 00 02 05 3B 00 00 48 A8 00 64 00 64 FF FF 00 00 00 00 00 FA 00 00 00 00 00 00 00 00 00 01 00 01 00 00 00 00 00 00 00 00 00 00 00 00 00 00 00 00 00 00 00 00 00 00 00 01 00 C0 FF FF 0E 69
20250518T082341 | B0 03 00 40 00 26 DE 25 B0 03 00 26 00 03 00 03 00 03 00 01 00 01 00 01 00 01 00 01 00 00 00 00 00 00 00 00 00 00 00 00 00 00 00 00 00 64 00 64 00 64 D2 C9
20250518T082341 | C0 03 01 00 00 1E D4 EF
20250518T082342 | F5 03 00 00 00 0B 11 79
20250518T082342 | F0 03 00 08 00 0C D1 2C
20250518T082342 | 7E FF A0 03 00 08 CD D7
20250518T082343 | 7E FF C1 03 00 08 D2 2B
20250518T082343 | 7E FF 41 03 00 08 FB EB
20250518T082343 | B0 03 00 08 00 44 DF DA
20250518T082343 | B0 03 00 44 03 01 00 B0 00 00 00 03 00 05 03 E8 04 B0 04 88 06 40 00 1E 00 00 05 8C 05 46 05 8C 00 00 02 58 00 00 05 A0 01 E0 04 C4 05 DC 0D AC 0B B8 00 02 00 01 00 00 00 FF 00 00 00 FF 00 00 00 FF 00 00 00 64 00 FF 39 65
20250518T082343 | B0 03 01 00 00 58 5E 2D
20250518T082344 | B0 03 00 58 08 E2 00 00 00 00 00 00 00 01 00 00 05 86 00 9C 05 6D 0B A9 00 62 00 03 00 F0 00 00 00 02 05 3E 00 00 48 A8 00 64 00 64 FF FF 00 00 00 00 00 FA 00 00 00 00 00 00 00 00 00 01 00 01 00 00 00 00 00 00 00 00 00 00 00 00 00 00 00 00 00 00 00 00 00 00 00 01 00 C0 FF FF A0 2D
20250518T082344 | B0 03 00 40 00 26 DE 25 B0 03 00 26 00 03 00 03 00 03 00 01 00 01 00 01 00 01 00 01 00 00 00 00 00 00 00 00 00 00 00 00 00 00 00 00 00 64 00 64 00 64 D2 C9
20250518T082344 | C0 03 01 00 00 1E D4 EF
20250518T082344 | F5 03 00 00 00 0B 11 79
20250518T082345 | F0 03 00 08 00 0C D1 2C
20250518T082345 | 7E FF A0 03 00 08 CD D7
20250518T082345 | 7E FF C1 03 00 08 D2 2B
20250518T082346 | 7E FF 41 03 00 08 FB EB
20250518T082346 | B0 03 00 08 00 44 DF DA
20250518T082346 | B0 03 00 44 03 01 00 B0 00 00 00 03 00 05 03 E8 04 B0 04 88 06 40 00 1E 00 00 05 8C 05 46 05 8C 00 00 02 58 00 00 05 A0 01 E0 04 C4 05 DC 0D AC 0B B8 00 02 00 01 00 00 00 FF 00 00 00 FF 00 00 00 FF 00 00 00 64 00 FF 39 65
20250518T082346 | B0 03 01 00 00 58 5E 2D
20250518T082346 | B0 03 00 58 08 DF 00 00 00 00 00 00 00 01 00 00 05 88 00 9F 05 6F 0B AC 00 62 00 03 00 F0 00 00 00 02 05 3E 00 00 48 A8 00 64 00 64 FF FF 00 00 00 00 00 FA 00 00 00 00 00 00 00 00 00 01 00 01 00 00 00 00 00 00 00 00 00 00 00 00 00 00 00 00 00 00 00 00 00 00 00 01 00 C0 FF FF A5 EC
20250518T082347 | B0 03 00 40 00 26 DE 25 B0 03 00 26 00 03 00 03 00 03 00 01 00 01 00 01 00 01 00 01 00 00 00 00 00 00 00 00 00 00 00 00 00 00 00 00 00 64 00 64 00 64 D2 C9
20250518T082347 | C0 03 01 00 00 1E D4 EF
20250518T082347 | F5 03 00 00 00 0B 11 79
20250518T082347 | F0 03 00 08 00 0C D1 2C
20250518T082348 | 7E FF A0 03 00 08 CD D7
20250518T082348 | 7E FF C1 03 00 08 D2 2B
20250518T082348 | 7E FF 41 03 00 08 FB EB
20250518T082348 | B0 03 00 08 00 44 DF DA
20250518T082349 | B0 03 00 44 03 01 00 B0 00 00 00 03 00 05 03 E8 04 B0 04 88 06 40 00 1E 00 00 05 8C 05 46 05 8C 00 00 02 58 00 00 05 A0 01 E0 04 C4 05 DC 0D AC 0B B8 00 02 00 01 00 00 00 FF 00 00 00 FF 00 00 00 FF 00 00 00 64 00 FF 39 65
20250518T082349 | B0 03 01 00 00 58 5E 2D
20250518T082349 | B0 03 00 58 08 D6 00 00 00 00 00 00 00 01 00 00 05 8B 00 A2 05 71 0B AC 00 62 00 03 00 E6 00 96 00 02 05 41 00 00 48 A8 00 64 00 64 FF FF 00 00 00 00 00 FA 00 00 00 00 00 00 00 00 00 01 00 01 00 00 00 00 00 00 00 00 00 00 00 00 00 00 00 00 00 00 00 00 00 00 00 01 00 C0 FF FF 7F 04
20250518T082349 | B0 03 00 40 00 26 DE 25 B0 03 00 26 00 03 00 03 00 03 00 01 00 01 00 01 00 01 00 01 00 00 00 00 00 00 00 00 00 00 00 00 00 00 00 00 00 64 00 64 00 64 D2 C9
20250518T082350 | C0 03 01 00 00 1E D4 EF
20250518T082350 | F5 03 00 00 00 0B 11 79
20250518T082350 | F0 03 00 08 00 0C D1 2C
20250518T082350 | 7E FF A0 03 00 08 CD D7
20250518T082351 | 7E FF C1 03 00 08 D2 2B
20250518T082351 | 7E FF 41 03 00 08 FB EB
20250518T082351 | B0 03 00 08 00 44 DF DA
20250518T082351 | B0 03 00 44 03 01 00 B0 00 00 00 03 00 05 03 E8 04 B0 04 88 06 40 00 1E 00 00 05 8C 05 46 05 8C 00 00 02 58 00 00 05 A0 01 E0 04 C4 05 DC 0D AC 0B B8 00 02 00 01 00 00 00 FF 00 00 00 FF 00 00 00 FF 00 00 00 64 00 FF 39 65
20250518T082352 | B0 03 01 00 00 58 5E 2D
20250518T082352 | B0 03 00 58 08 FA 00 00 00 00 00 00 00 00 00 00 05 8D 00 97 05 4E 03 AD 00 62 00 0A 00 E6 00 96 00 02 05 31 00 00 48 A8 00 64 00 64 FF FF 00 00 00 00 00 FA 00 00 00 00 00 00 00 00 00 01 00 01 00 00 00 00 00 00 00 00 00 00 00 00 00 00 00 00 00 00 00 00 00 00 00 01 00 C0 FF FF 8B 2F
20250518T082352 | B0 03 00 40 00 26 DE 25 B0 03 00 26 00 03 00 03 00 03 00 01 00 01 00 01 00 01 00 01 00 00 00 00 00 00 00 00 00 00 00 00 00 00 00 00 00 64 00 64 00 64 D2 C9
20250518T082352 | C0 03 01 00 00 1E D4 EF
20250518T082353 | F5 03 00 00 00 0B 11 79
20250518T082353 | F0 03 00 08 00 0C D1 2C
20250518T082353 | 7E FF A0 03 00 08 CD D7
20250518T082353 | 7E FF C1 03 00 08 D2 2B
20250518T082354 | 7E FF 41 03 00 08 FB EB
20250518T082354 | B0 03 00 08 00 44 DF DA
20250518T082354 | B0 03 00 44 03 01 00 B0 00 00 00 03 00 05 03 E8 04 B0 04 88 06 40 00 1E 00 00 05 8C 05 46 05 8C 00 00 02 58 00 00 05 A0 01 E0 04 C4 05 DC 0D AC 0B B8 00 02 00 01 00 00 00 FF 00 00 00 FF 00 00 00 FF 00 00 00 64 00 FF 39 65
20250518T082354 | B0 03 01 00 00 58 5E 2D
20250518T082354 | B0 03 00 58 07 B3 00 50 00 00 00 00 00 00 00 00 05 36 00 A3 05 38 FF AD 00 62 27 0F 00 E6 00 96 00 02 05 2E 00 00 08 A8 00 64 00 64 FF FF 00 00 00 00 00 FA 00 00 00 00 00 00 00 00 00 01 00 01 00 00 00 00 00 00 00 00 00 00 00 00 00 00 00 00 00 00 00 00 00 00 00 01 00 C0 FF FF BE 09
20250518T082355 | B0 03 00 40 00 26 DE 25 B0 03 00 26 00 03 00 03 00 03 00 01 00 01 00 01 00 01 00 01 00 00 00 00 00 00 00 00 00 00 00 00 00 00 00 00 00 64 00 64 00 64 D2 C9
20250518T082355 | C0 03 01 00 00 1E D4 EF
20250518T082355 | F5 03 00 00 00 0B 11 79
20250518T082355 | F0 03 00 08 00 0C D1 2C
20250518T082356 | 7E FF A0 03 00 08 CD D7
20250518T082356 | 7E FF C1 03 00 08 D2 2B
20250518T082356 | 7E FF 41 03 00 08 FB EB
20250518T082357 | B0 03 00 08 00 44 DF DA
20250518T082357 | B0 03 00 44 03 01 00 B0 00 00 00 03 00 05 03 E8 04 B0 04 88 06 40 00 1E 00 00 05 8C 05 46 05 8C 00 00 02 58 00 00 05 A0 01 E0 04 C4 05 DC 0D AC 0B B8 00 02 00 01 00 00 00 FF 00 00 00 FF 00 00 00 FF 00 00 00 64 00 FF 39 65
20250518T082357 | B0 03 01 00 00 58 5E 2D
20250518T082357 | B0 03 00 58 05 E7 00 00 00 00 00 00 00 00 00 00 05 34 00 80 05 36 FF 8C 00 62 13 DC 00 F0 01 0E 00 02 05 2C 00 00 08 A8 00 64 00 64 FF FF 00 00 00 00 00 FA 00 00 00 00 00 00 00 00 00 01 00 01 00 00 00 00 00 00 00 00 00 00 00 00 00 00 00 00 00 00 00 00 00 00 00 01 00 C0 FF FF BD F8
20250518T082357 | B0 03 00 40 00 26 DE 25 B0 03 00 26 00 03 00 03 00 03 00 01 00 01 00 01 00 01 00 01 00 00 00 00 00 00 00 00 00 00 00 00 00 00 00 00 00 64 00 64 00 64 D2 C9
20250518T082358 | C0 03 01 00 00 1E D4 EF
20250518T082358 | F5 03 00 00 00 0B 11 79
20250518T082358 | F0 03 00 08 00 0C D1 2C
20250518T082358 | 7E FF A0 03 00 08 CD D7
20250518T082359 | 7E FF C1 03 00 08 D2 2B
20250518T082359 | B0 10 01 0E 00 02 00 01 52 AE B0 10 01 0E 00 02 00 01 52 AE
20250518T082400 | B0 03 00 08 00 44 DF DA B0 03 00 44 03 01 00 B0 00 00 00 03 00 05 03 E8 04 B0 04 88 06 40 00 1E 00 00 05 8C 05 46 05 8C 00 00 02 58 00 00 05 A0 01 E0 04 C4 05 DC 0D AC 0B B8 00 02 00 01 00 00 00 FF 00 00 00 FF 00 00 00 FF 00 00 00 64 00 FF 39 65
20250518T082400 | B0 03 01 00 00 58 5E 2D B0 03 00 58 05 78 00 00 00 00 00 00 00 00 00 00 05 33 00 81 05 35 FF 7F 00 62 11 DC 00 F0 00 00 00 01 05 2B 00 00 08 A8 00 64 00 64 FF FF 00 00 00 00 00 FA 00 00 00 00 00 00 00 00 00 01 00 01 00 00 00 00 00 00 00 00 00 00 00 00 00 00 00 00 00 00 00 00 00 00 00 01 00 C0 FF FF 70 B7
20250518T082400 | B0 10 01 1D 00 02 00 01 D7 6D B0 10 01 1D 00 02 00 01 D7 6D
20250518T082401 | B0 03 00 08 00 44 DF DA
20250518T082401 | B0 03 00 44 03 01 00 B0 00 00 00 03 00 05 03 E8 04 B0 04 88 06 40 00 1E 00 00 05 8C 05 46 05 8C 00 00 02 58 00 00 05 A0 01 E0 04 C4 05 DC 0D AC 0B B8 00 02 00 01 00 00 00 FF 00 00 00 FF 00 00 00 FF 00 00 00 64 00 FF 39 65
20250518T082401 | B0 03 01 00 00 58 5E 2D
20250518T082401 | B0 03 00 58 05 76 00 00 00 00 00 00 00 00 00 00 05 32 00 87 05 34 FF 79 00 62 11 11 00 F0 00 00 00 01 05 2C 00 00 08 A8 00 64 00 64 FF FF 00 01 00 00 00 FA 00 00 00 00 00 00 00 00 00 01 00 01 00 01 00 00 00 00 00 00 00 00 00 00 00 00 00 00 00 00 00 00 00 00 00 01 00 C0 FF FF 6A F6
20250518T082402 | B0 03 00 40 00 26 DE 25 B0 03 00 26 00 03 00 03 00 03 00 01 00 01 00 01 00 01 00 01 00 00 00 00 00 00 00 00 00 00 00 00 00 00 00 00 00 64 00 64 00 64 D2 C9
20250518T082402 | C0 03 01 00 00 1E D4 EF
20250518T082402 | F5 03 00 00 00 0B 11 79
20250518T082402 | F0 03 00 08 00 0C D1 2C
20250518T082403 | 7E FF A0 03 00 08 CD D7
20250518T082403 | 7E FF C1 03 00 08 D2 2B
20250518T082403 | 7E FF 41 03 00 08 FB EB
20250518T082403 | B0 03 00 08 00 44 DF DA
20250518T082404 | B0 03 00 44 03 01 00 B0 00 00 00 03 00 05 03 E8 04 B0 04 88 06 40 00 1E 00 00 05 8C 05 46 05 8C 00 00 02 58 00 00 05 A0 01 E0 04 C4 05 DC 0D AC 0B B8 00 02 00 01 00 00 00 FF 00 00 00 FF 00 00 00 FF 00 00 00 64 00 FF 39 65
20250518T082404 | B0 03 01 00 00 58 5E 2D
20250518T082404 | B0 03 00 58 05 76 00 00 00 00 00 00 00 00 00 00 05 31 00 88 05 33 FF 78 00 62 10 F0 00 F0 00 00 00 02 05 2D 00 00 08 A8 00 64 00 64 FF FF 00 01 00 00 00 FA 00 00 00 00 00 00 00 00 00 01 00 01 00 01 00 00 00 00 00 00 00 00 00 00 00 00 00 00 00 00 00 00 00 00 00 01 00 C0 FF FF F8 FE
20250518T082404 | B0 03 00 40 00 26 DE 25 B0 03 00 26 00 03 00 03 00 03 00 01 00 01 00 01 00 01 00 01 00 00 00 00 00 00 00 00 00 00 00 00 00 00 00 00 00 64 00 64 00 64 D2 C9
20250518T082405 | C0 03 01 00 00 1E D4 EF
20250518T082405 | F5 03 00 00 00 0B 11 79
20250518T082405 | F0 03 00 08 00 0C D1 2C
20250518T082405 | 7E FF A0 03 00 08 CD D7
20250518T082406 | B0 10 01 1D 00 02 00 00 16 AD B0 10 01 1D 00 02 00 00 16 AD
20250518T082406 | B0 03 00 08 00 44 DF DA
20250518T082406 | B0 03 00 44 03 01 00 B0 00 00 00 03 00 05 03 E8 04 B0 04 88 06 40 00 1E 00 00 05 8C 05 46 05 8C 00 00 02 58 00 00 05 A0 01 E0 04 C4 05 DC 0D AC 0B B8 00 02 00 01 00 00 00 FF 00 00 00 FF 00 00 00 FF 00 00 00 64 00 FF 39 65
20250518T082407 | B0 03 01 00 00 58 5E 2D
20250518T082407 | B0 03 00 58 05 77 00 00 00 00 00 00 00 00 00 00 05 31 00 84 05 33 FF 7C 00 62 11 74 00 F0 00 00 00 02 05 2B 00 00 08 A8 00 64 00 64 FF FF 00 00 00 00 00 FA 00 00 00 00 00 00 00 00 00 01 00 01 00 00 00 00 00 00 00 00 00 00 00 00 00 00 00 00 00 00 00 00 00 00 00 01 00 C0 FF FF 63 E3
20250518T082407 | B0 03 00 40 00 26 DE 25 B0 03 00 26 00 03 00 03 00 03 00 01 00 01 00 01 00 01 00 01 00 00 00 00 00 00 00 00 00 00 00 00 00 00 00 00 00 64 00 64 00 64 D2 C9
20250518T082407 | C0 03 01 00 00 1E D4 EF
20250518T082408 | F5 03 00 00 00 0B 11 79
20250518T082408 | F0 03 00 08 00 0C D1 2C
20250518T082408 | 7E FF A0 03 00 08 CD D7
20250518T082408 | 7E FF C1 03 00 08 D2 2B
20250518T082409 | 7E FF 41 03 00 08 FB EB
20250518T082409 | B0 03 00 08 00 44 DF DA
20250518T082409 | B0 03 00 44 03 01 00 B0 00 00 00 03 00 05 03 E8 04 B0 04 88 06 40 00 1E 00 00 05 8C 05 46 05 8C 00 00 02 58 00 00 05 A0 01 E0 04 C4 05 DC 0D AC 0B B8 00 02 00 01 00 00 00 FF 00 00 00 FF 00 00 00 FF 00 00 00 64 00 FF 39 65
20250518T082409 | B0 03 01 00 00 58 5E 2D B0 03 00 58 05 76 00 00 00 00 00 00 00 00 00 00 05 31 00 82 05 33 FF 7E 00 62 11 B8 00 F0 00 00 00 02 05 29 00 00 08 A8 00 64 00 64 FF FF 00 00 00 00 00 FA 00 00 00 00 00 00 00 00 00 01 00 01 00 00 00 00 00 00 00 00 00 00 00 00 00 00 00 00 00 00 00 00 00 00 00 01 00 C0 FF FF 93 77
20250518T082410 | B0 03 00 40 00 26 DE 25 B0 03 00 26 00 03 00 03 00 03 00 01 00 01 00 01 00 01 00 01 00 00 00 00 00 00 00 00 00 00 00 00 00 00 00 00 00 64 00 64 00 64 D2 C9
20250518T082410 | C0 03 01 00 00 1E D4 EF
20250518T082410 | F5 03 00 00 00 0B 11 79
20250518T082410 | B0 10 01 1E 00 02 00 01 93 6D B0 10 01 1E 00 02 00 01 93 6D
20250518T082411 | B0 03 00 08 00 44 DF DA
20250518T082411 | B0 03 00 44 03 01 00 B0 00 00 00 03 00 05 03 E8 04 B0 04 88 06 40 00 1E 00 00 05 8C 05 46 05 8C 00 00 02 58 00 00 05 A0 01 E0 04 C4 05 DC 0D AC 0B B8 00 02 00 01 00 00 00 FF 00 00 00 FF 00 00 00 FF 00 00 00 64 00 FF 39 65
20250518T082411 | B0 03 01 00 00 58 5E 2D
20250518T082411 | B0 03 00 58 05 75 00 00 00 00 00 00 00 00 00 00 05 2F 00 9D 05 32 FF 5B 00 62 0D F6 00 F0 00 00 00 02 05 28 00 00 08 A8 00 64 00 64 FF FF 00 00 00 00 00 FA 00 00 00 00 00 00 00 00 00 01 00 01 00 00 00 01 00 00 00 00 00 00 00 00 00 00 00 00 00 00 00 00 00 00 00 01 00 C0 FF FF AD D3
20250518T082412 | B0 03 00 40 00 26 DE 25 B0 03 00 26 00 03 00 03 00 03 00 01 00 01 00 01 00 01 00 01 00 00 00 00 00 00 00 00 00 00 00 00 00 00 00 00 00 64 00 64 00 64 D2 C9
20250518T082412 | C0 03 01 00 00 1E D4 EF
20250518T082412 | F5 03 00 00 00 0B 11 79
20250518T082413 | F0 03 00 08 00 0C D1 2C
20250518T082413 | 7E FF A0 03 00 08 CD D7
20250518T082413 | 7E FF C1 03 00 08 D2 2B
20250518T082413 | 7E FF 41 03 00 08 FB EB
20250518T082414 | B0 03 00 08 00 44 DF DA
20250518T082414 | B0 03 00 44 03 01 00 B0 00 00 00 03 00 05 03 E8 04 B0 04 88 06 40 00 1E 00 00 05 8C 05 46 05 8C 00 00 02 58 00 00 05 A0 01 E0 04 C4 05 DC 0D AC 0B B8 00 02 00 01 00 00 00 FF 00 00 00 FF 00 00 00 FF 00 00 00 64 00 FF 39 65
20250518T082414 | B0 03 01 00 00 58 5E 2D B0 03 00 58 05 73 00 00 00 00 00 00 00 00 00 00 05 2F 00 9F 05 31 FF 60 00 62 0E 66 00 F0 00 00 00 02 05 28 00 00 08 A8 00 64 00 64 FF FF 00 00 00 00 00 FA 00 00 00 00 00 00 00 00 00 01 00 01 00 00 00 01 00 00 00 00 00 00 00 00 00 00 00 00 00 00 00 00 00 00 00 01 00 C0 FF FF C6 14
20250518T082414 | B0 03 00 40 00 26 DE 25 B0 03 00 26 00 03 00 03 00 03 00 01 00 01 00 01 00 01 00 01 00 00 00 00 00 00 00 00 00 00 00 00 00 00 00 00 00 64 00 64 00 64 D2 C9
20250518T082415 | C0 03 01 00 00 1E D4 EF
20250518T082415 | F5 03 00 00 00 0B 11 79
20250518T082415 | B0 10 01 1E 00 02 00 00 52 AD B0 10 01 1E 00 02 00 00 52 AD
20250518T082416 | B0 03 00 08 00 44 DF DA B0 03 00 44 03 01 00 B0 00 00 00 03 00 05 03 E8 04 B0 04 88 06 40 00 1E 00 00 05 8C 05 46 05 8C 00 00 02 58 00 00 05 A0 01 E0 04 C4 05 DC 0D AC 0B B8 00 02 00 01 00 00 00 FF 00 00 00 FF 00 00 00 FF 00 00 00 64 00 FF 39 65
20250518T082416 | B0 03 01 00 00 58 5E 2D
20250518T082416 | B0 03 00 58 05 75 00 00 00 00 00 00 00 00 00 00 05 2F 00 8C 05 32 FF 74 00 62 10 74 00 F0 00 00 00 02 05 28 00 00 08 A8 00 64 00 64 FF FF 00 00 00 00 00 FA 00 00 00 00 00 00 00 00 00 01 00 01 00 00 00 00 00 00 00 00 00 00 00 00 00 00 00 00 00 00 00 00 00 00 00 01 00 C0 FF FF B8 AA
20250518T082417 | B0 03 00 40 00 26 DE 25 B0 03 00 26 00 03 00 03 00 03 00 01 00 01 00 01 00 01 00 01 00 00 00 00 00 00 00 00 00 00 00 00 00 00 00 00 00 64 00 64 00 64 D2 C9
20250518T082417 | C0 03 01 00 00 1E D4 EF
20250518T082417 | F5 03 00 00 00 0B 11 79
20250518T082417 | F0 03 00 08 00 0C D1 2C
20250518T082418 | 7E FF A0 03 00 08 CD D7
20250518T082418 | 7E FF C1 03 00 08 D2 2B
20250518T082418 | 7E FF 41 03 00 08 FB EB
20250518T082419 | B0 10 02 07 00 01 01 10 BF B0 10 02 07 00 01 01 10 BF
20250518T082419 | B0 03 00 08 00 44 DF DA
20250518T082419 | B0 03 00 44 03 01 00 B0 00 00 00 03 00 05 03 E8 04 B0 04 88 06 40 00 1E 00 00 05 8C 05 46 05 8C 00 00 02 58 00 00 05 A0 01 E0 04 C4 05 DC 0D AC 0B B8 00 02 00 01 00 00 00 FF 00 00 00 FF 00 00 00 FF 00 00 00 64 00 FF 39 65
20250518T082419 | B0 03 01 00 00 58 5E 2D
20250518T082420 | B0 03 00 58 05 75 00 00 00 00 00 00 00 00 00 00 05 30 00 88 05 32 FF 78 00 62 10 F0 00 F0 00 00 00 02 05 29 00 00 08 B8 00 64 00 64 FF FF 00 00 00 00 00 FA 00 00 00 00 00 00 00 00 00 01 00 01 00 00 00 00 00 00 00 00 00 00 00 00 00 00 00 00 00 00 00 00 00 00 00 09 00 C0 FF FF 99 3E
20250518T082420 | B0 03 00 40 00 26 DE 25 B0 03 00 26 00 03 00 03 00 03 00 01 00 01 00 01 00 01 00 01 00 00 00 00 00 00 00 00 00 00 00 00 00 00 00 00 00 64 00 64 00 64 D2 C9
20250518T082420 | C0 03 01 00 00 1E D4 EF
20250518T082420 | F5 03 00 00 00 0B 11 79
20250518T082421 | F0 03 00 08 00 0C D1 2C
20250518T082421 | 7E FF A0 03 00 08 CD D7
20250518T082421 | 7E FF C1 03 00 08 D2 2B
20250518T082421 | 7E FF 41 03 00 08 FB EB
20250518T082422 | B0 03 00 08 00 44 DF DA
20250518T082422 | B0 03 00 44 03 01 00 B0 00 00 00 03 00 05 03 E8 04 B0 04 88 06 40 00 1E 00 00 05 8C 05 46 05 8C 00 00 02 58 00 00 05 A0 01 E0 04 C4 05 DC 0D AC 0B B8 00 02 00 01 00 00 00 FF 00 00 00 FF 00 00 00 FF 00 00 00 64 00 FF 39 65
20250518T082422 | B0 03 01 00 00 58 5E 2D
20250518T082422 | B0 03 00 58 05 74 00 00 00 00 00 00 00 00 00 00 05 2F 00 88 05 31 FF 78 00 62 10 F0 00 F0 00 00 00 02 05 29 00 00 08 B8 00 64 00 64 FF FF 00 00 00 00 00 FA 00 00 00 00 00 00 00 00 00 01 00 01 00 00 00 00 00 00 00 00 00 00 00 00 00 00 00 00 00 00 00 00 00 00 00 09 00 C0 FF FF 76 E7
20250518T082423 | B0 03 00 40 00 26 DE 25 B0 03 00 26 00 03 00 03 00 03 00 01 00 01 00 01 00 01 00 01 00 00 00 00 00 00 00 00 00 00 00 00 00 00 00 00 00 64 00 64 00 64 D2 C9
20250518T082423 | C0 03 01 00 00 1E D4 EF
20250518T082423 | F5 03 00 00 00 0B 11 79
20250518T082423 | F0 03 00 08 00 0C D1 2C
20250518T082424 | 7E FF A0 03 00 08 CD D7
20250518T082424 | 7E FF C1 03 00 08 D2 2B
20250518T082424 | 7E FF 41 03 00 08 FB EB
20250518T082425 | B0 03 00 08 00 44 DF DA B0 03 00 44 03 01 00 B0 00 00 00 03 00 05 03 E8 04 B0 04 88 06 40 00 1E 00 00 05 8C 05 46 05 8C 00 00 02 58 00 00 05 A0 01 E0 04 C4 05 DC 0D AC 0B B8 00 02 00 01 00 00 00 FF 00 00 00 FF 00 00 00 FF 00 00 00 64 00 FF 39 65
20250518T082425 | B0 03 01 00 00 58 5E 2D
20250518T082425 | B0 03 00 58 05 72 00 00 00 00 00 00 00 00 00 00 05 2F 00 8E 05 31 FF 72 00 62 10 39 00 F0 00 00 00 02 05 27 00 00 08 B8 00 64 00 64 FF FF 00 00 00 00 00 FA 00 00 00 00 00 00 00 00 00 01 00 01 00 00 00 00 00 00 00 00 00 00 00 00 00 00 00 00 00 00 00 00 00 00 00 09 00 C0 FF FF 02 F1
20250518T082425 | B0 03 00 40 00 26 DE 25 B0 03 00 26 00 03 00 03 00 03 00 01 00 01 00 01 00 01 00 01 00 00 00 00 00 00 00 00 00 00 00 00 00 00 00 00 00 64 00 64 00 64 D2 C9
20250518T082426 | C0 03 01 00 00 1E D4 EF
20250518T082426 | F5 03 00 00 00 0B 11 79
20250518T082426 | B0 10 02 07 00 01 00 D1 7F B0 10 02 07 00 01 00 D1 7F
20250518T082427 | B0 03 00 08 00 44 DF DA B0 03 00 44 03 01 00 B0 00 00 00 03 00 05 03 E8 04 B0 04 88 06 40 00 1E 00 00 05 8C 05 46 05 8C 00 00 02 58 00 00 05 A0 01 E0 04 C4 05 DC 0D AC 0B B8 00 02 00 01 00 00 00 FF 00 00 00 FF 00 00 00 FF 00 00 00 64 00 FF 39 65
20250518T082427 | B0 03 01 00 00 58 5E 2D
20250518T082427 | B0 03 00 58 05 72 00 00 00 00 00 00 00 00 00 00 05 2E 00 8E 05 30 FF 72 00 62 10 39 00 F0 00 00 00 02 05 26 00 00 08 A8 00 64 00 64 FF FF 00 00 00 00 00 FA 00 00 00 00 00 00 00 00 00 01 00 01 00 00 00 00 00 00 00 00 00 00 00 00 00 00 00 00 00 00 00 00 00 00 00 01 00 C0 FF FF 7D 2A
20250518T082427 | B0 03 00 40 00 26 DE 25 B0 03 00 26 00 03 00 03 00 03 00 01 00 01 00 01 00 01 00 01 00 00 00 00 00 00 00 00 00 00 00 00 00 00 00 00 00 64 00 64 00 64 D2 C9
20250518T082428 | C0 03 01 00 00 1E D4 EF
20250518T082428 | F5 03 00 00 00 0B 11 79
20250518T082428 | F0 03 00 08 00 0C D1 2C
20250518T082428 | 7E FF A0 03 00 08 CD D7
20250518T082429 | 7E FF C1 03 00 08 D2 2B
20250518T082429 | B0 10 01 0E 00 02 00 01 52 AE B0 10 01 0E 00 02 00 01 52 AE
20250518T082430 | B0 03 00 08 00 44 DF DA
20250518T082430 | B0 03 00 44 03 01 00 B0 00 00 00 03 00 05 03 E8 04 B0 04 88 06 40 00 1E 00 00 05 8C 05 46 05 8C 00 00 02 58 00 00 05 A0 01 E0 04 C4 05 DC 0D AC 0B B8 00 02 00 01 00 00 00 FF 00 00 00 FF 00 00 00 FF 00 00 00 64 00 FF 39 65
20250518T082430 | B0 03 01 00 00 58 5E 2D
20250518T082430 | B0 03 00 58 08 44 00 00 00 00 00 00 00 00 00 00 05 2D 00 A6 05 30 FF 5C 00 62 0E 0C 00 F0 00 00 00 01 05 27 00 00 08 A8 00 64 00 64 FF FF 00 00 00 00 00 FA 00 00 00 00 00 00 00 00 00 01 00 01 00 00 00 00 00 00 00 00 00 00 00 00 00 00 00 00 00 00 00 00 00 00 00 01 00 C0 FF FF 0B D1
20250518T082430 | B0 03 00 40 00 26 DE 25 B0 03 00 26 00 03 00 03 00 03 00 01 00 01 00 01 00 01 00 01 00 00 00 00 00 00 00 00 00 00 00 00 00 00 00 00 00 64 00 64 00 64 D2 C9
20250518T082431 | C0 03 01 00 00 1E D4 EF
20250518T082431 | B0 10 02 04 00 01 01 10 FB B0 10 02 04 00 01 01 10 FB
20250518T082431 | B0 03 00 08 00 44 DF DA B0 03 00 44 03 01 00 B0 00 00 00 03 00 05 03 E8 04 B0 04 88 06 40 00 1E 00 00 05 8C 05 46 05 8C 00 00 02 58 00 00 05 A0 01 E0 04 C4 05 DC 0D AC 0B B8 00 02 00 01 00 00 00 FF 00 00 00 FF 00 00 00 FF 00 00 00 64 00 FF 39 65
20250518T082432 | B0 03 01 00 00 58 5E 2D
20250518T082432 | B0 03 00 58 07 3C 00 00 00 00 00 00 00 00 00 00 00 00 00 00 05 32 00 00 00 62 27 0F 00 F0 00 00 00 01 05 2A 00 00 08 88 00 64 00 64 FF FF 00 00 00 00 00 FA 00 00 00 00 00 00 00 00 00 00 00 00 00 00 00 00 00 00 00 00 00 00 00 00 00 00 00 00 00 00 00 00 00 00 00 01 00 C0 FF FF 21 C1
20250518T082432 | B0 03 00 40 00 26 DE 25 B0 03 00 26 00 03 00 03 00 03 00 01 00 01 00 01 00 01 00 01 00 00 00 00 00 00 00 00 00 00 00 00 00 00 00 00 00 64 00 64 00 64 D2 C9
20250518T082432 | C0 03 01 00 00 1E D4 EF
20250518T082433 | F5 03 00 00 00 0B 11 79
20250518T082433 | F0 03 00 08 00 0C D1 2C
20250518T082433 | 7E FF A0 03 00 08 CD D7
20250518T082434 | 7E FF C1 03 00 08 D2 2B
20250518T082434 | 7E FF 41 03 00 08 FB EB
20250518T082434 | B0 03 00 08 00 44 DF DA
20250518T082434 | B0 03 00 44 03 01 00 B0 00 00 00 03 00 05 03 E8 04 B0 04 88 06 40 00 1E 00 00 05 8C 05 46 05 8C 00 00 02 58 00 00 05 A0 01 E0 04 C4 05 DC 0D AC 0B B8 00 02 00 01 00 00 00 FF 00 00 00 FF 00 00 00 FF 00 00 00 64 00 FF 39 65
20250518T082434 | B0 03 01 00 00 58 5E 2D
20250518T082435 | B0 03 00 58 05 7A 00 00 00 00 00 00 00 00 00 00 00 00 00 00 05 33 00 00 00 62 03 56 00 F0 00 00 00 02 05 28 00 00 08 88 00 64 00 64 FF FF 00 00 00 00 00 FA 00 00 00 00 00 00 00 00 00 00 00 00 00 00 00 00 00 00 00 00 00 00 00 00 00 00 00 00 00 00 00 00 00 00 00 01 00 C0 FF FF 3D 33
20250518T082435 | B0 03 00 40 00 26 DE 25
20250518T082435 | B0 03 00 26 00 03 00 03 00 03 00 01 00 01 00 01 00 01 00 01 00 00 00 00 00 00 00 00 00 00 00 00 00 00 00 00 00 64 00 64 00 64 D2 C9
20250518T082435 | C0 03 01 00 00 1E D4 EF
20250518T082435 | F5 03 00 00 00 0B 11 79
20250518T082436 | F0 03 00 08 00 0C D1 2C
20250518T082436 | 7E FF A0 03 00 08 CD D7
20250518T082436 | 7E FF C1 03 00 08 D2 2B
20250518T082437 | 7E FF 41 03 00 08 FB EB
20250518T082437 | B0 03 00 08 00 44 DF DA
20250518T082437 | B0 03 00 44 03 01 00 B0 00 00 00 03 00 05 03 E8 04 B0 04 88 06 40 00 1E 00 00 05 8C 05 46 05 8C 00 00 02 58 00 00 05 A0 01 E0 04 C4 05 DC 0D AC 0B B8 00 02 00 01 00 00 00 FF 00 00 00 FF 00 00 00 FF 00 00 00 64 00 FF 39 65
20250518T082437 | B0 03 01 00 00 58 5E 2D
20250518T082437 | B0 03 00 58 05 7A 00 00 00 00 00 00 00 00 00 00 00 00 00 00 05 33 00 00 00 62 02 DC 00 F0 00 00 00 02 05 2A 00 00 08 88 00 64 00 64 FF FF 00 00 00 00 00 FA 00 00 00 00 00 00 00 00 00 00 00 00 00 00 00 00 00 00 00 00 00 00 00 00 00 00 00 00 00 00 00 00 00 00 00 01 00 C0 FF FF 95 18
20250518T082438 | B0 03 00 40 00 26 DE 25 B0 03 00 26 00 03 00 03 00 03 00 01 00 01 00 01 00 01 00 01 00 00 00 00 00 00 00 00 00 00 00 00 00 00 00 00 00 64 00 64 00 64 D2 C9
20250518T082438 | C0 03 01 00 00 1E D4 EF
20250518T082438 | F5 03 00 00 00 0B 11 79
20250518T082438 | B0 10 02 04 00 01 00 D1 3B B0 10 02 04 00 01 00 D1 3B
20250518T082439 | B0 03 00 08 00 44 DF DA
20250518T082439 | B0 03 00 44 03 01 00 B0 00 00 00 03 00 05 03 E8 04 B0 04 88 06 40 00 1E 00 00 05 8C 05 46 05 8C 00 00 02 58 00 00 05 A0 01 E0 04 C4 05 DC 0D AC 0B B8 00 02 00 01 00 00 00 FF 00 00 00 FF 00 00 00 FF 00 00 00 64 00 FF 39 65
20250518T082439 | B0 03 01 00 00 58 5E 2D
20250518T082439 | B0 03 00 58 05 79 00 00 00 00 00 00 00 00 00 00 05 32 00 00 05 33 00 00 00 62 27 0F 00 F0 00 00 00 02 05 27 00 00 08 A8 00 64 00 64 FF FF 00 00 00 00 00 FA 00 00 00 00 00 00 00 00 00 00 00 00 00 00 00 00 00 00 00 00 00 00 00 00 00 00 00 00 00 00 00 00 00 00 00 01 00 C0 FF FF BA 3C
20250518T082440 | B0 03 00 40 00 26 DE 25 B0 03 00 26 00 03 00 03 00 03 00 01 00 01 00 01 00 01 00 01 00 00 00 00 00 00 00 00 00 00 00 00 00 00 00 00 00 64 00 64 00 64 D2 C9
20250518T082440 | C0 03 01 00 00 1E D4 EF
20250518T082440 | F5 03 00 00 00 0B 11 79
20250518T082440 | F0 03 00 08 00 0C D1 2C
20250518T082441 | 7E FF A0 03 00 08 CD D7
20250518T082441 | 7E FF C1 03 00 08 D2 2B
20250518T082441 | 7E FF 41 03 00 08 FB EB
20250518T082442 | B0 03 00 08 00 44 DF DA
20250518T082442 | B0 03 00 44 03 01 00 B0 00 00 00 03 00 05 03 E8 04 B0 04 88 06 40 00 1E 00 00 05 8C 05 46 05 8C 00 00 02 58 00 00 05 A0 01 E0 04 C4 05 DC 0D AC 0B B8 00 02 00 01 00 00 00 FF 00 00 00 FF 00 00 00 FF 00 00 00 64 00 FF 39 65
20250518T082442 | B0 03 01 00 00 58 5E 2D
20250518T082442 | B0 03 00 58 05 73 00 00 00 00 00 00 00 00 00 00 05 2E 00 88 05 30 FF 78 00 62 10 F0 00 F0 00 00 00 02 05 28 00 00 08 A8 00 64 00 64 FF FF 00 00 00 00 00 FA 00 00 00 00 00 00 00 00 00 01 00 01 00 00 00 00 00 00 00 00 00 00 00 00 00 00 00 00 00 00 00 00 00 00 00 01 00 C0 FF FF 06 73
20250518T082442 | B0 03 00 40 00 26 DE 25 B0 03 00 26 00 03 00 03 00 03 00 01 00 01 00 01 00 01 00 01 00 00 00 00 00 00 00 00 00 00 00 00 00 00 00 00 00 64 00 64 00 64 D2 C9
20250518T082443 | C0 03 01 00 00 1E D4 EF
20250518T082443 | F5 03 00 00 00 0B 11 79
20250518T082443 | F0 03 00 08 00 0C D1 2C
20250518T082443 | 7E FF A0 03 00 08 CD D7
20250518T082444 | 7E FF C1 03 00 08 D2 2B
20250518T082444 | 7E FF 41 03 00 08 FB EB
20250518T082444 | B0 03 00 08 00 44 DF DA
20250518T082444 | B0 03 00 44 03 01 00 B0 00 00 00 03 00 05 03 E8 04 B0 04 88 06 40 00 1E 00 00 05 8C 05 46 05 8C 00 00 02 58 00 00 05 A0 01 E0 04 C4 05 DC 0D AC 0B B8 00 02 00 01 00 00 00 FF 00 00 00 FF 00 00 00 FF 00 00 00 64 00 FF 39 65
20250518T082445 | B0 03 01 00 00 58 5E 2D
20250518T082445 | B0 03 00 58 05 73 00 00 00 00 00 00 00 00 00 00 05 2E 00 88 05 30 FF 78 00 62 10 F0 00 F0 00 00 00 02 05 26 00 00 08 A8 00 64 00 64 FF FF 00 00 00 00 00 FA 00 00 00 00 00 00 00 00 00 01 00 01 00 00 00 00 00 00 00 00 00 00 00 00 00 00 00 00 00 00 00 00 00 00 00 01 00 C0 FF FF 79 20
20250518T082445 | B0 03 00 40 00 26 DE 25 B0 03 00 26 00 03 00 03 00 03 00 01 00 01 00 01 00 01 00 01 00 00 00 00 00 00 00 00 00 00 00 00 00 00 00 00 00 64 00 64 00 64 D2 C9
20250518T082445 | C0 03 01 00 00 1E D4 EF
20250518T082446 | F5 03 00 00 00 0B 11 79
20250518T082446 | F0 03 00 08 00 0C D1 2C
20250518T082446 | 7E FF A0 03 00 08 CD D7
20250518T082446 | 7E FF C1 03 00 08 D2 2B
20250518T082447 | 7E FF 41 03 00 08 FB EB
20250518T082447 | B0 03 00 08 00 44 DF DA
20250518T082447 | B0 03 00 44 03 01 00 B0 00 00 00 03 00 05 03 E8 04 B0 04 88 06 40 00 1E 00 00 05 8C 05 46 05 8C 00 00 02 58 00 00 05 A0 01 E0 04 C4 05 DC 0D AC 0B B8 00 02 00 01 00 00 00 FF 00 00 00 FF 00 00 00 FF 00 00 00 64 00 FF 39 65
20250518T082447 | B0 03 01 00 00 58 5E 2D
20250518T082447 | B0 03 00 58 05 73 00 00 00 00 00 00 00 00 00 00 05 2E 00 87 05 30 FF 79 00 62 11 10 00 F0 00 00 00 02 05 26 00 00 08 A8 00 64 00 64 FF FF 00 00 00 00 00 FA 00 00 00 00 00 00 00 00 00 01 00 01 00 00 00 00 00 00 00 00 00 00 00 00 00 00 00 00 00 00 00 00 00 00 00 01 00 C0 FF FF 4E 0B
20250518T082448 | B0 03 00 40 00 26 DE 25 B0 03 00 26 00 03 00 03 00 03 00 01 00 01 00 01 00 01 00 01 00 00 00 00 00 00 00 00 00 00 00 00 00 00 00 00 00 64 00 64 00 64 D2 C9
20250518T082448 | C0 03 01 00 00 1E D4 EF
20250518T082448 | F5 03 00 00 00 0B 11 79
20250518T082449 | F0 03 00 08 00 0C D1 2C
20250518T082449 | 7E FF A0 03 00 08 CD D7
20250518T082449 | 7E FF C1 03 00 08 D2 2B
20250518T082449 | 7E FF 41 03 00 08 FB EB
20250518T082450 | B0 03 00 08 00 44 DF DA
20250518T082450 | B0 03 00 44 03 01 00 B0 00 00 00 03 00 05 03 E8 04 B0 04 88 06 40 00 1E 00 00 05 8C 05 46 05 8C 00 00 02 58 00 00 05 A0 01 E0 04 C4 05 DC 0D AC 0B B8 00 02 00 01 00 00 00 FF 00 00 00 FF 00 00 00 FF 00 00 00 64 00 FF 39 65
20250518T082450 | B0 03 01 00 00 58 5E 2D
20250518T082450 | B0 03 00 58 05 73 00 00 00 00 00 00 00 00 00 00 05 2E 00 84 05 30 FF 7C 00 62 11 73 00 F0 00 00 00 02 05 26 00 00 08 A8 00 64 00 64 FF FF 00 00 00 00 00 FA 00 00 00 00 00 00 00 00 00 01 00 01 00 00 00 00 00 00 00 00 00 00 00 00 00 00 00 00 00 00 00 00 00 00 00 01 00 C0 FF FF F0 97
20250518T082451 | B0 03 00 40 00 26 DE 25 B0 03 00 26 00 03 00 03 00 03 00 01 00 01 00 01 00 01 00 01 00 00 00 00 00 00 00 00 00 00 00 00 00 00 00 00 00 64 00 64 00 64 D2 C9
20250518T082451 | C0 03 01 00 00 1E D4 EF
20250518T082451 | F5 03 00 00 00 0B 11 79
20250518T082451 | F0 03 00 08 00 0C D1 2C
20250518T082452 | 7E FF A0 03 00 08 CD D7
20250518T082452 | 7E FF C1 03 00 08 D2 2B
20250518T082452 | 7E FF 41 03 00 08 FB EB
20250518T082452 | B0 03 00 08 00 44 DF DA
20250518T082452 | B0 03 00 44 03 01 00 B0 00 00 00 03 00 05 03 E8 04 B0 04 88 06 40 00 1E 00 00 05 8C 05 46 05 8C 00 00 02 58 00 00 05 A0 01 E0 04 C4 05 DC 0D AC 0B B8 00 02 00 01 00 00 00 FF 00 00 00 FF 00 00 00 FF 00 00 00 64 00 FF 39 65
20250518T082453 | B0 03 01 00 00 58 5E 2D B0 03 00 58 05 73 00 00 00 00 00 00 00 00 00 00 05 2E 00 82 05 30 FF 7E 00 62 11 B8 00 F0 00 00 00 02 05 26 00 00 08 A8 00 64 00 64 FF FF 00 00 00 00 00 FA 00 00 00 00 00 00 00 00 00 01 00 01 00 00 00 00 00 00 00 00 00 00 00 00 00 00 00 00 00 00 00 00 00 00 00 01 00 C0 FF FF 82 37
20250518T082453 | B0 03 00 40 00 26 DE 25 B0 03 00 26 00 03 00 03 00 03 00 01 00 01 00 01 00 01 00 01 00 00 00 00 00 00 00 00 00 00 00 00 00 00 00 00 00 64 00 64 00 64 D2 C9
20250518T082453 | C0 03 01 00 00 1E D4 EF
20250518T082454 | F5 03 00 00 00 0B 11 79
20250518T082454 | F0 03 00 08 00 0C D1 2C
20250518T082454 | 7E FF A0 03 00 08 CD D7
20250518T082455 | 7E FF C1 03 00 08 D2 2B
20250518T082455 | 7E FF 41 03 00 08 FB EB
20250518T082455 | B0 03 00 08 00 44 DF DA
20250518T082455 | B0 03 00 44 03 01 00 B0 00 00 00 03 00 05 03 E8 04 B0 04 88 06 40 00 1E 00 00 05 8C 05 46 05 8C 00 00 02 58 00 00 05 A0 01 E0 04 C4 05 DC 0D AC 0B B8 00 02 00 01 00 00 00 FF 00 00 00 FF 00 00 00 FF 00 00 00 64 00 FF 39 65
20250518T082456 | B0 03 01 00 00 58 5E 2D B0 03 00 58 05 73 00 00 00 00 00 00 00 00 00 00 05 2E 00 80 05 30 FF 80 00 62 11 FF 00 F0 00 00 00 02 05 26 00 00 08 A8 00 64 00 64 FF FF 00 00 00 00 00 FA 00 00 00 00 00 00 00 00 00 01 00 01 00 00 00 00 00 00 00 00 00 00 00 00 00 00 00 00 00 00 00 00 00 00 00 01 00 C0 FF FF 99 F2
20250518T082456 | B0 03 00 40 00 26 DE 25 B0 03 00 26 00 03 00 03 00 03 00 01 00 01 00 01 00 01 00 01 00 00 00 00 00 00 00 00 00 00 00 00 00 00 00 00 00 64 00 64 00 64 D2 C9
20250518T082456 | C0 03 01 00 00 1E D4 EF
20250518T082456 | F5 03 00 00 00 0B 11 79
20250518T082457 | F0 03 00 08 00 0C D1 2C
20250518T082457 | 7E FF A0 03 00 08 CD D7
20250518T082457 | 7E FF C1 03 00 08 D2 2B
20250518T082458 | 7E FF 41 03 00 08 FB EB
20250518T082458 | B0 03 00 08 00 44 DF DA
20250518T082458 | B0 03 00 44 03 01 00 B0 00 00 00 03 00 05 03 E8 04 B0 04 88 06 40 00 1E 00 00 05 8C 05 46 05 8C 00 00 02 58 00 00 05 A0 01 E0 04 C4 05 DC 0D AC 0B B8 00 02 00 01 00 00 00 FF 00 00 00 FF 00 00 00 FF 00 00 00 64 00 FF 39 65
20250518T082458 | B0 03 01 00 00 58 5E 2D
20250518T082458 | B0 03 00 58 05 73 00 00 00 00 00 00 00 00 00 00 05 2E 00 7E 05 30 FF 82 00 62 12 48 00 F0 00 00 00 02 05 26 00 00 08 A8 00 64 00 64 FF FF 00 00 00 00 00 FA 00 00 00 00 00 00 00 00 00 01 00 01 00 00 00 00 00 00 00 00 00 00 00 00 00 00 00 00 00 00 00 00 00 00 00 01 00 C0 FF FF E6 2E
20250518T082459 | B0 03 00 40 00 26 DE 25 B0 03 00 26 00 03 00 03 00 03 00 01 00 01 00 01 00 01 00 01 00 00 00 00 00 00 00 00 00 00 00 00 00 00 00 00 00 64 00 64 00 64 D2 C9
20250518T082459 | C0 03 01 00 00 1E D4 EF C0 03 00 1E 00 00 00 00 00 00 00 02 00 00 00 00 00 00 00 00 00 00 00 00 00 00 00 00 00 00 00 00 00 00 E0 48 C0 FF 00 03 00 02 00 01 67 54
20250518T082459 | C0 FF 80 03 00 40 00 00 00 00 00 00 00 00 00 00 00 00 00 00 00 00 00 00 00 00 00 00 00 00 00 00 00 00 00 00 00 0F 00 4B 61 70 70 61 32 30 34 30 20 30 32 2E 30 30 2E 30 30 30 31 20 62 30 31 2E 30 32 00 00 00 00 3B 3C
20250518T082459 | B0 10 02 05 00 01 01 11 07 B0 10 02 05 00 01 01 11 07 B0 10 01 0E 00 02 00 01 52 AE B0 10 01 0E 00 02 00 01 52 AE
20250518T082500 | 7E FF 41 03 00 08 FB EB
20250518T082500 | B0 03 00 08 00 44 DF DA
20250518T082500 | B0 03 00 44 03 01 00 B0 00 00 00 03 00 05 03 E8 04 B0 04 88 06 40 00 1E 00 00 05 8C 05 46 05 8C 00 00 02 58 00 00 05 A0 01 E0 04 C4 05 DC 0D AC 0B B8 00 02 00 01 00 00 00 FF 00 00 00 FF 00 00 00 FF 00 00 00 64 00 FF 39 65
20250518T082501 | B0 03 01 00 00 58 5E 2D
20250518T082501 | B0 03 00 58 05 73 00 00 00 00 00 00 00 00 00 00 05 2E 00 7E 05 30 FF 82 00 62 12 48 00 F0 00 00 00 01 05 26 00 00 08 E8 00 64 00 64 FF FF 00 00 00 00 00 FA 00 00 00 00 00 00 00 00 00 01 00 01 00 00 00 00 00 00 00 00 00 00 00 00 00 00 00 00 00 00 00 00 00 00 00 01 00 C0 FF FF 75 0B
20250518T082501 | B0 03 00 40 00 26 DE 25 B0 03 00 26 00 03 00 03 00 03 00 01 00 01 00 01 00 01 00 01 00 00 00 00 00 00 00 00 00 00 00 00 00 00 00 00 00 64 00 64 00 64 D2 C9
20250518T082501 | C0 03 01 00 00 1E D4 EF C0 03 00 1E 00 00 00 00 04 B3 00 02 00 02 00 00 00 FA 00 00 04 A7 00 D2 00 D2 00 D2 00 80 20 1F 00 07 CA B1
20250518T082502 | C0 03 00 08 00 28 D4 C7 C0 03 00 28 01 15 00 C0 00 00 00 03 00 05 0B B8 04 B0 04 7E 06 40 00 0A 00 00 05 8C 05 46 05 8C 54 60 02 58 00 00 00 32 05 DC 0B B8 2A D9
20250518T082502 | C0 03 00 1C 00 80 95 7D C0 03 00 80 FF FF F0 00 54 60 00 0A 00 01 00 00 00 00 00 0A 0B B8 00 00 00 2D 00 01 00 2D 01 2C 04 88 00 3C 04 B0 00 50 04 88 00 28 0A 6A 0A 55 0A 62 0A 6A 0A 6A 04 C5 05 DE 00 62 50 5A 00 50
20250518T082502 | 00 00 00 00 00 00 00 00 05 A0 05 46 05 82 05 46 05 BE 05 46 05 F0 05 46 05 82 05 52 05 8C 05 46 05 8C 05 46 05 C8 05 46 05 BE 05 5A 00 01 00 00 00 14 00 3C 00 01 04 C4 04 B0 00 05 00 05 00 00 00 00 00 01 F6 96
20250518T082502 | F5 03 00 00 00 0B 11 79
20250518T082503 | F0 03 00 08 00 0C D1 2C
20250518T082503 | 7E FF A0 03 00 08 CD D7
20250518T082503 | 7E FF C1 03 00 08 D2 2B
20250518T082503 | 7E FF 41 03 00 08 FB EB
20250518T082504 | B0 03 00 08 00 44 DF DA
20250518T082504 | B0 03 00 44 03 01 00 B0 00 00 00 03 00 05 03 E8 04 B0 04 88 06 40 00 1E 00 00 05 8C 05 46 05 8C 00 00 02 58 00 00 05 A0 01 E0 04 C4 05 DC 0D AC 0B B8 00 02 00 01 00 00 00 FF 00 00 00 FF 00 00 00 FF 00 00 00 64 00 FF 39 65
20250518T082504 | B0 03 01 00 00 58 5E 2D
20250518T082504 | B0 03 00 58 07 31 00 00 00 00 00 00 00 00 00 00 05 2D 00 7C 05 2F FF 68 00 62 0F 27 00 F0 00 00 00 02 05 28 00 00 18 EB 00 64 00 64 FF FF 00 00 00 00 00 FA 00 00 00 00 00 00 00 00 00 01 00 01 00 00 00 00 00 00 00 00 00 00 00 00 00 00 00 00 00 00 00 00 00 00 00 01 00 C0 FF FF C9 F5
20250518T082504 | B0 03 00 40 00 26 DE 25 B0 03 00 26 00 03 00 03 00 03 00 01 00 01 00 01 00 01 00 01 00 00 00 00 00 00 00 00 00 00 00 00 00 00 00 00 00 64 00 64 00 64 D2 C9
20250518T082505 | C0 03 01 00 00 1E D4 EF C0 03 00 1E 00 00 00 00 05 96 00 02 00 04 00 00 00 FA 00 00 05 87 00 D2 00 D2 00 D2 00 80 20 1F 00 07 81 3F
20250518T082505 | C0 03 00 08 00 28 D4 C7 C0 03 00 28 01 15 00 C0 00 00 00 03 00 05 0B B8 04 B0 04 7E 06 40 00 0A 00 00 05 8C 05 46 05 8C 54 60 02 58 00 00 00 32 05 DC 0B B8 2A D9
20250518T082505 | C0 03 00 1C 00 80 95 7D
20250518T082506 | C0 03 00 80 FF FF F0 00 54 60 00 0A 00 01 00 00 00 00 00 0A 0B B8 00 00 00 2D 00 01 00 2D 01 2C 04 88 00 3C 04 B0 00 50 04 88 00 28 0A 6A 0A 55 0A 62 0A 6A 0A 6A 04 C5 05 DE 00 62 50 5A 00 50 00 00 00 00 00 00 00 00 05 A0 05 46 05 82 05 46 05 BE 05 46 05 F0 05 46 05 82 05 52 05 8C 05 46 05 8C 05 46 05 C8 05 46 05 BE 05 5A 00 01 00 00 00 14 00 3C 00 01 04 C4 04 B0 00 05 00 05 00 00 00 00 00 01 F6 96
20250518T082506 | F5 03 00 00 00 0B 11 79
20250518T082506 | B0 10 02 05 00 01 00 D0 C7 B0 10 02 05 00 01 00 D0 C7
20250518T082507 | B0 03 00 08 00 44 DF DA
20250518T082507 | B0 03 00 44 03 01 00 B0 00 00 00 03 00 05 03 E8 04 B0 04 88 06 40 00 1E 00 00 05 8C 05 46 05 8C 00 00 02 58 00 00 05 A0 01 E0 04 C4 05 DC 0D AC 0B B8 00 02 00 01 00 00 00 FF 00 00 00 FF 00 00 00 FF 00 00 00 64 00 FF 39 65
20250518T082507 | B0 03 01 00 00 58 5E 2D
20250518T082507 | B0 03 00 58 08 5F 00 3B 00 00 00 00 00 01 00 00 05 2E 00 96 05 30 FF A5 00 62 19 50 00 F0 00 00 00 02 05 26 00 00 08 A8 00 64 00 64 FF FF 00 00 00 00 00 FA 00 00 00 00 00 00 00 00 00 01 00 01 00 00 00 00 00 00 00 00 00 00 00 00 00 00 00 00 00 00 00 00 00 00 00 01 00 C0 FF FF 45 A4
20250518T082507 | B0 03 00 40 00 26 DE 25 B0 03 00 26 00 03 00 03 00 03 00 01 00 01 00 01 00 01 00 01 00 00 00 00 00 00 00 00 00 00 00 00 00 00 00 00 00 64 00 64 00 64 D2 C9
20250518T082508 | C0 03 01 00 00 1E D4 EF C0 03 00 1E 00 00 00 00 05 B6 00 02 00 04 00 00 00 FA 00 00 05 A7 00 D2 00 D2 00 D2 00 80 20 1F 00 07 55 35
20250518T082508 | C0 03 00 08 00 28 D4 C7 C0 03 00 28 01 15 00 C0 00 00 00 03 00 05 0B B8 04 B0 04 7E 06 40 00 0A 00 00 05 8C 05 46 05 8C 54 60 02 58 00 00 00 32 05 DC 0B B8 2A D9
20250518T082508 | C0 03 00 1C 00 80 95 7D
20250518T082508 | C0 03 00 80 FF FF F0 00 54 60 00 0A 00 01 00 00 00 00 00 0A 0B B8 00 00 00 2D 00 01 00 2D 01 2C 04 88 00 3C 04 B0 00 50 04 88 00 28 0A 6A 0A 55 0A 62 0A 6A 0A 6A 04 C5 05 DE 00 62 50 5A 00 50 00 00 00 00 00 00 00 00 05 A0 05 46 05 82 05 46 05 BE 05 46 05 F0 05 46 05 82 05 52 05 8C 05 46 05 8C 05 46 05 C8 05 46 05 BE 05 5A 00 01 00 00 00 14 00 3C 00 01 04 C4 04 B0 00 05 00 05 00 00 00 00 00 01 F6 96
20250518T082509 | F5 03 00 00 00 0B 11 79
20250518T082509 | F0 03 00 08 00 0C D1 2C
20250518T082509 | 7E FF A0 03 00 08 CD D7
20250518T082510 | 7E FF C1 03 00 08 D2 2B
20250518T082510 | 7E FF 41 03 00 08 FB EB
20250518T082510 | B0 03 00 08 00 44 DF DA B0 03 00 44 03 01 00 B0 00 00 00 03 00 05 03 E8 04 B0 04 88 06 40 00 1E 00 00 05 8C 05 46 05 8C 00 00 02 58 00 00 05 A0 01 E0 04 C4 05 DC 0D AC 0B B8 00 02 00 01 00 00 00 FF 00 00 00 FF 00 00 00 FF 00 00 00 64 00 FF 39 65
20250518T082510 | B0 03 01 00 00 58 5E 2D
20250518T082511 | B0 03 00 58 05 D0 00 00 00 00 00 00 00 02 00 00 05 2D 00 74 05 30 FF 8B 00 62 13 B0 00 F0 00 00 00 02 05 26 00 00 08 A8 00 64 00 64 FF FF 00 00 00 00 00 FA 00 00 00 00 00 00 00 00 00 01 00 01 00 00 00 00 00 00 00 00 00 00 00 00 00 00 00 00 00 00 00 00 00 00 00 01 00 C0 FF FF 69 A3
20250518T082511 | B0 03 00 40 00 26 DE 25 B0 03 00 26 00 03 00 03 00 03 00 01 00 01 00 01 00 01 00 01 00 00 00 00 00 00 00 00 00 00 00 00 00 00 00 00 00 64 00 64 00 64 D2 C9
20250518T082511 | C0 03 01 00 00 1E D4 EF C0 03 00 1E 00 00 00 00 05 B3 00 02 00 05 00 00 00 FA 00 00 05 A4 00 D2 00 D2 00 D2 00 80 20 1F 00 07 41 FB
20250518T082511 | C0 03 00 08 00 28 D4 C7 C0 03 00 28 01 15 00 C0 00 00 00 03 00 05 0B B8 04 B0 04 7E 06 40 00 0A 00 00 05 8C 05 46 05 8C 54 60 02 58 00 00 00 32 05 DC 0B B8 2A D9
20250518T082512 | C0 03 00 1C 00 80 95 7D
20250518T082512 | C0 03 00 80 FF FF F0 00 54 60 00 0A 00 01 00 00 00 00 00 0A 0B B8 00 00 00 2D 00 01 00 2D 01 2C 04 88 00 3C 04 B0 00 50 04 88 00 28 0A 6A 0A 55 0A 62 0A 6A 0A 6A 04 C5 05 DE 00 62 50 5A 00 50
20250518T082512 | 00 00 00 00 00 00 00 00 05 A0 05 46 05 82 05 46 05 BE 05 46 05 F0 05 46 05 82 05 52 05 8C 05 46 05 8C 05 46 05 C8 05 46 05 BE 05 5A 00 01 00 00 00 14 00 3C 00 01 04 C4 04 B0 00 05 00 05 00 00 00 00 00 01 F6 96
20250518T082512 | F5 03 00 00 00 0B 11 79
20250518T082512 | F0 03 00 08 00 0C D1 2C
20250518T082513 | 7E FF A0 03 00 08 CD D7
20250518T082513 | 7E FF C1 03 00 08 D2 2B
20250518T082513 | B0 10 02 05 00 01 00 D0 C7 B0 10 02 05 00 01 00 D0 C7
20250518T082514 | B0 03 00 08 00 44 DF DA
20250518T082514 | B0 03 00 44 03 01 00 B0 00 00 00 03 00 05 03 E8 04 B0 04 88 06 40 00 1E 00 00 05 8C 05 46 05 8C 00 00 02 58 00 00 05 A0 01 E0 04 C4 05 DC 0D AC 0B B8 00 02 00 01 00 00 00 FF 00 00 00 FF 00 00 00 FF 00 00 00 64 00 FF 39 65
20250518T082514 | B0 03 01 00 00 58 5E 2D B0 03 00 58 05 73 00 00 00 00 00 00 00 03 00 00 05 2D 00 78 05 30 FF 88 00 62 13 31 00 F0 00 00 00 02 05 26 00 00 08 A8 00 64 00 64 FF FF 00 00 00 00 00 FA 00 00 00 00 00 00 00 00 00 01 00 01 00 00 00 00 00 00 00 00 00 00 00 00 00 00 00 00 00 00 00 00 00 00 00 01 00 C0 FF FF BF 4B
20250518T082515 | B0 03 00 40 00 26 DE 25 B0 03 00 26 00 03 00 03 00 03 00 01 00 01 00 01 00 01 00 01 00 00 00 00 00 00 00 00 00 00 00 00 00 00 00 00 00 64 00 64 00 64 D2 C9
20250518T082515 | C0 03 01 00 00 1E D4 EF C0 03 00 1E 00 00 00 00 05 B2 00 02 00 06 00 00 00 FA 00 01 05 A3 00 D2 00 D2 00 D2 00 80 20 1F 00 07 EC 76
20250518T082515 | C0 03 00 08 00 28 D4 C7 C0 03 00 28 01 15 00 C0 00 00 00 03 00 05 0B B8 04 B0 04 7E 06 40 00 0A 00 00 05 8C 05 46 05 8C 54 60 02 58 00 00 00 32 05 DC 0B B8 2A D9
20250518T082515 | C0 03 00 1C 00 80 95 7D
20250518T082516 | C0 03 00 80 FF FF F0 00 54 60 00 0A 00 01 00 00 00 00 00 0A 0B B8 00 00 00 2D 00 01 00 2D 01 2C 04 88 00 3C 04 B0 00 50 04 88 00 28 0A 6A 0A 55 0A 62 0A 6A 0A 6A 04 C5 05 DE 00 62 50 5A 00 50
20250518T082516 | 00 00 00 00 00 00 00 00 05 A0 05 46 05 82 05 46 05 BE 05 46 05 F0 05 46 05 82 05 52 05 8C 05 46 05 8C 05 46 05 C8 05 46 05 BE 05 5A 00 01 00 00 00 14 00 3C 00 01 04 C4 04 B0 00 05 00 05 00 00 00 00 00 01 F6 96
20250518T082516 | F5 03 00 00 00 0B 11 79
20250518T082516 | F0 03 00 08 00 0C D1 2C
20250518T082516 | 7E FF A0 03 00 08 CD D7
20250518T082517 | 7E FF C1 03 00 08 D2 2B
20250518T082517 | 7E FF 41 03 00 08 FB EB
20250518T082517 | B0 03 00 08 00 44 DF DA B0 03 00 44 03 01 00 B0 00 00 00 03 00 05 03 E8 04 B0 04 88 06 40 00 1E 00 00 05 8C 05 46 05 8C 00 00 02 58 00 00 05 A0 01 E0 04 C4 05 DC 0D AC 0B B8 00 02 00 01 00 00 00 FF 00 00 00 FF 00 00 00 FF 00 00 00 64 00 FF 39 65
20250518T082518 | B0 03 01 00 00 58 5E 2D
20250518T082518 | B0 03 00 58 05 73 00 00 00 00 00 00 00 03 00 00 05 2D 00 76 05 30 FF 8A 00 62 13 85 00 F0 00 00 00 02 05 26 00 00 08 A8 00 64 00 64 FF FF 00 00 00 00 00 FA 00 00 00 00 00 00 00 00 00 01 00 01 00 00 00 00 00 00 00 00 00 00 00 00 00 00 00 00 00 00 00 00 00 00 00 01 00 C0 FF FF 64 99
20250518T082518 | B0 03 00 40 00 26 DE 25 B0 03 00 26 00 03 00 03 00 03 00 01 00 01 00 01 00 01 00 01 00 00 00 00 00 00 00 00 00 00 00 00 00 00 00 00 00 64 00 64 00 64 D2 C9
20250518T082518 | C0 03 01 00 00 1E D4 EF C0 03 00 1E 00 00 00 00 05 B1 00 02 00 06 00 00 00 FA 00 00 05 A2 00 D2 00 D2 00 D2 00 80 20 1F 00 07 D0 BC
20250518T082519 | C0 03 00 08 00 28 D4 C7 C0 03 00 28 01 15 00 C0 00 00 00 03 00 05 0B B8 04 B0 04 7E 06 40 00 0A 00 00 05 8C 05 46 05 8C 54 60 02 58 00 00 00 32 05 DC 0B B8 2A D9
20250518T082519 | C0 03 00 1C 00 80 95 7D
20250518T082519 | C0 03 00 80 FF FF F0 00 54 60 00 0A 00 01 00 00 00 00 00 0A 0B B8 00 00 00 2D 00 01 00 2D 01 2C 04 88 00 3C 04 B0 00 50 04 88 00 28 0A 6A 0A 55 0A 62 0A 6A 0A 6A 04 C5 05 DE 00 62 50 5A 00 50
20250518T082519 | 00 00 00 00 00 00 00 00 05 A0 05 46 05 82 05 46 05 BE 05 46 05 F0 05 46 05 82 05 52 05 8C 05 46 05 8C 05 46 05 C8 05 46 05 BE 05 5A 00 01 00 00 00 14 00 3C 00 01 04 C4 04 B0 00 05 00 05 00 00 00 00 00 01 F6 96
20250518T082519 | F5 03 00 00 00 0B 11 79
20250518T082520 | F0 03 00 08 00 0C D1 2C
20250518T082520 | 7E FF A0 03 00 08 CD D7
20250518T082520 | B0 10 02 05 00 01 00 D0 C7 B0 10 02 05 00 01 00 D0 C7
20250518T082521 | B0 03 00 08 00 44 DF DA
20250518T082521 | B0 03 00 44 03 01 00 B0 00 00 00 03 00 05 03 E8 04 B0 04 88 06 40 00 1E 00 00 05 8C 05 46 05 8C 00 00 02 58 00 00 05 A0 01 E0 04 C4 05 DC 0D AC 0B B8 00 02 00 01 00 00 00 FF 00 00 00 FF 00 00 00 FF 00 00 00 64 00 FF 39 65
20250518T082521 | B0 03 01 00 00 58 5E 2D
20250518T082521 | B0 03 00 58 05 73 00 00 00 00 00 00 00 04 00 00 05 2D 00 74 05 2F FF 8C 00 62 13 DB 00 F0 00 00 00 02 05 27 00 00 08 A8 00 64 00 64 FF FF 00 00 00 00 00 FA 00 00 00 00 00 00 00 00 00 01 00 01 00 00 00 00 00 00 00 00 00 00 00 00 00 00 00 00 00 00 00 00 00 00 00 01 00 C0 FF FF 2E 8E
20250518T082522 | B0 03 00 40 00 26 DE 25 B0 03 00 26 00 03 00 03 00 03 00 01 00 01 00 01 00 01 00 01 00 00 00 00 00 00 00 00 00 00 00 00 00 00 00 00 00 64 00 64 00 64 D2 C9
20250518T082522 | C0 03 01 00 00 1E D4 EF C0 03 00 1E 00 00 00 00 05 43 00 02 00 07 00 00 00 FA 00 00 05 36 00 D2 00 D2 00 D2 00 80 20 1F 00 07 A2 CA
20250518T082522 | C0 03 00 08 00 28 D4 C7 C0 03 00 28 01 15 00 C0 00 00 00 03 00 05 0B B8 04 B0 04 7E 06 40 00 0A 00 00 05 8C 05 46 05 8C 54 60 02 58 00 00 00 32 05 DC 0B B8 2A D9
20250518T082522 | C0 03 00 1C 00 80 95 7D
20250518T082523 | C0 03 00 80 FF FF F0 00 54 60 00 0A 00 01 00 00 00 00 00 0A 0B B8 00 00 00 2D 00 01 00 2D 01 2C 04 88 00 3C 04 B0 00 50 04 88 00 28 0A 6A 0A 55 0A 62 0A 6A 0A 6A 04 C5 05 DE 00 62 50 5A 00 50
20250518T082523 | 00 00 00 00 00 00 00 00 05 A0 05 46 05 82 05 46 05 BE 05 46 05 F0 05 46 05 82 05 52 05 8C 05 46 05 8C 05 46 05 C8 05 46 05 BE 05 5A 00 01 00 00 00 14 00 3C 00 01 04 C4 04 B0 00 05 00 05 00 00 00 00 00 01 F6 96
20250518T082523 | F5 03 00 00 00 0B 11 79
20250518T082523 | F0 03 00 08 00 0C D1 2C
20250518T082523 | 7E FF A0 03 00 08 CD D7
20250518T082524 | 7E FF C1 03 00 08 D2 2B
20250518T082524 | 7E FF 41 03 00 08 FB EB
20250518T082524 | B0 03 00 08 00 44 DF DA
20250518T082524 | B0 03 00 44 03 01 00 B0 00 00 00 03 00 05 03 E8 04 B0 04 88 06 40 00 1E 00 00 05 8C 05 46 05 8C 00 00 02 58 00 00 05 A0 01 E0 04 C4 05 DC 0D AC 0B B8 00 02 00 01 00 00 00 FF 00 00 00 FF 00 00 00 FF 00 00 00 64 00 FF 39 65
20250518T082525 | B0 03 01 00 00 58 5E 2D B0 03 00 58 05 72 00 00 00 00 00 00 00 05 00 00 05 2D 00 77 05 2F FF 89 00 62 13 5B 00 F0 00 00 00 02 05 27 00 00 08 A8 00 64 00 64 FF FF 00 00 00 00 00 FA 00 00 00 00 00 00 00 00 00 01 00 01 00 00 00 00 00 00 00 00 00 00 00 00 00 00 00 00 00 00 00 00 00 00 00 01 00 C0 FF FF 16 12
20250518T082525 | B0 03 00 40 00 26 DE 25 B0 03 00 26 00 03 00 03 00 03 00 01 00 01 00 01 00 01 00 01 00 00 00 00 00 00 00 00 00 00 00 00 00 00 00 00 00 64 00 64 00 64 D2 C9
20250518T082525 | C0 03 01 00 00 1E D4 EF C0 03 00 1E 00 00 00 00 05 05 00 02 04 0E 00 00 00 FA 00 06 04 F8 00 D2 00 D2 00 D2 00 90 20 18 00 07 37 AC
20250518T082526 | C0 03 00 08 00 28 D4 C7 C0 03 00 28 01 15 00 C0 00 00 00 03 00 05 0B B8 04 B0 04 7E 06 40 00 0A 00 00 05 8C 05 46 05 8C 54 60 02 58 00 00 00 32 05 DC 0B B8 2A D9
20250518T082526 | C0 03 00 1C 00 80 95 7D
20250518T082526 | C0 03 00 80 FF FF F0 00 54 60 00 0A 00 01 00 00 00 00 00 0A 0B B8 00 00 00 2D 00 01 00 2D 01 2C 04 88 00 3C 04 B0 00 50 04 88 00 28 0A 6A 0A 55 0A 62 0A 6A 0A 6A 04 C5 05 DE 00 62 50 5A 00 50 00 00 00 00 00 00 00 00 05 A0 05 46 05 82 05 46 05 BE 05 46 05 F0 05 46 05 82 05 52 05 8C 05 46 05 8C 05 46 05 C8 05 46 05 BE 05 5A 00 01 00 00 00 14 00 3C 00 01 04 C4 04 B0 00 05 00 05 00 00 00 00 00 01 F6 96
20250518T082526 | F5 03 00 00 00 0B 11 79
20250518T082527 | F0 03 00 08 00 0C D1 2C
20250518T082527 | 7E FF A0 03 00 08 CD D7
20250518T082527 | 7E FF C1 03 00 08 D2 2B
20250518T082527 | B0 10 02 05 00 01 01 11 07 B0 10 02 05 00 01 01 11 07
20250518T082528 | B0 03 00 08 00 44 DF DA
20250518T082528 | B0 03 00 44 03 01 00 B0 00 00 00 03 00 05 03 E8 04 B0 04 88 06 40 00 1E 00 00 05 8C 05 46 05 8C 00 00 02 58 00 00 05 A0 01 E0 04 C4 05 DC 0D AC 0B B8 00 02 00 01 00 00 00 FF 00 00 00 FF 00 00 00 FF 00 00 00 64 00 FF 39 65
20250518T082528 | B0 03 01 00 00 58 5E 2D
20250518T082528 | B0 03 00 58 05 88 00 00 00 00 00 00 05 46 00 00 05 3F 00 00 05 41 03 9D 00 62 00 0B 00 F0 00 00 00 02 05 2E 00 20 08 E8 00 64 00 64 FF FF 00 00 00 00 00 FA 00 00 00 00 00 00 00 00 00 00 00 00 00 00 00 00 00 00 00 00 00 00 00 00 00 00 00 00 00 00 00 00 00 00 00 01 00 C0 FF FF D1 8E
20250518T082529 | B0 03 00 40 00 26 DE 25 B0 03 00 26 00 03 00 03 00 03 00 01 00 01 00 01 00 01 00 01 00 00 00 00 00 00 00 00 00 00 00 00 00 00 00 00 00 64 00 64 00 64 D2 C9
20250518T082529 | C0 03 01 00 00 1E D4 EF C0 03 00 1E 00 00 00 00 04 DA 00 02 05 36 00 DC 00 FA 00 08 04 CD 00 D2 00 D2 00 D2 00 90 20 08 00 07 27 1D B0 10 01 0E 00 02 00 01 52 AE B0 10 01 0E 00 02 00 01 52 AE
20250518T082530 | B0 03 00 08 00 44 DF DA
20250518T082530 | B0 03 00 44 03 01 00 B0 00 00 00 03 00 05 03 E8 04 B0 04 88 06 40 00 1E 00 00 05 8C 05 46 05 8C 00 00 02 58 00 00 05 A0 01 E0 04 C4 05 DC 0D AC 0B B8 00 02 00 01 00 00 00 FF 00 00 00 FF 00 00 00 FF 00 00 00 64 00 FF 39 65
20250518T082530 | B0 03 01 00 00 58 5E 2D
20250518T082530 | B0 03 00 58 05 76 00 00 00 00 00 00 05 30 00 00 05 2D 00 00 05 30 FF 8F 00 62 14 62 00 F0 00 00 00 01 05 27 00 20 08 E8 00 64 00 64 FF FF 00 00 00 00 00 FA 00 00 00 00 00 00 00 00 00 00 00 00 00 00 00 00 00 00 00 00 00 00 00 00 00 00 00 00 00 00 00 00 00 00 00 01 00 C0 FF FF DF 73
20250518T082530 | B0 03 00 40 00 26 DE 25 B0 03 00 26 00 03 00 03 00 03 00 01 00 01 00 01 00 01 00 01 00 00 00 00 00 00 00 00 00 00 00 00 00 00 00 00 00 64 00 64 00 64 D2 C9
20250518T082531 | C0 03 01 00 00 1E D4 EF C0 03 00 1E 00 00 00 00 04 E9 00 02 05 31 00 49 00 FA 00 08 04 DD 00 DC 00 D2 00 D2 00 90 20 08 00 07 7A B7
20250518T082531 | C0 03 00 08 00 28 D4 C7 C0 03 00 28 01 15 00 C0 00 00 00 03 00 05 0B B8 04 B0 04 7E 06 40 00 0A 00 00 05 8C 05 46 05 8C 54 60 02 58 00 00 00 32 05 DC 0B B8 2A D9
20250518T082531 | C0 03 00 1C 00 80 95 7D
20250518T082531 | C0 03 00 80 FF FF F0 00 54 60 00 0A 00 01 00 00 00 00 00 0A 0B B8 00 00 00 2D 00 01 00 2D 01 2C 04 88 00 3C 04 B0 00 50 04 88 00 28 0A 6A 0A 55 0A 62 0A 6A 0A 6A 04 C5 05 DE 00 62 50 5A 00 50
20250518T082531 | 00 00 00 93 00 00 00 00 05 A0 05 46 05 82 05 46 05 BE 05 46 05 F0 05 46 05 82 05 52 05 8C 05 46 05 8C 05 46 05 C8 05 46 05 BE 05 5A 00 01 00 00 00 14 00 3C 00 01 04 C4 04 B0 00 05 00 05 00 00 00 00 00 01 CA 7D
20250518T082532 | F5 03 00 00 00 0B 11 79
20250518T082532 | F0 03 00 08 00 0C D1 2C
20250518T082532 | 7E FF A0 03 00 08 CD D7
20250518T082533 | 7E FF C1 03 00 08 D2 2B
20250518T082533 | 7E FF 41 03 00 08 FB EB
20250518T082533 | B0 03 00 08 00 44 DF DA
20250518T082533 | B0 03 00 44 03 01 00 B0 00 00 00 03 00 05 03 E8 04 B0 04 88 06 40 00 1E 00 00 05 8C 05 46 05 8C 00 00 02 58 00 00 05 A0 01 E0 04 C4 05 DC 0D AC 0B B8 00 02 00 01 00 00 00 FF 00 00 00 FF 00 00 00 FF 00 00 00 64 00 FF 39 65
20250518T082533 | B0 03 01 00 00 58 5E 2D
20250518T082534 | B0 03 00 58 05 7B 00 00 00 00 00 00 05 36 00 00 05 32 00 00 05 34 00 A2 00 62 00 3F 00 F0 00 00 00 02 05 2B 00 20 08 E8 00 64 00 64 FF FF 00 00 00 00 00 F0 00 00 00 00 00 00 00 00 00 00 00 00 00 00 00 00 00 00 00 00 00 00 00 00 00 00 00 00 00 00 00 00 00 00 00 01 00 C0 FF FF 2A 7A
20250518T082534 | B0 03 00 40 00 26 DE 25 B0 03 00 26 00 03 00 03 00 03 00 01 00 01 00 01 00 01 00 01 00 00 00 00 00 00 00 00 00 00 00 00 00 00 00 00 00 64 00 64 00 64 D2 C9
20250518T082534 | C0 03 01 00 00 1E D4 EF C0 03 00 1E 00 00 00 00 04 C5 00 02 05 39 01 6C 00 FA 00 08 04 B9 00 DC 00 D2 00 D2 00 90 20 08 00 07 52 04 B0 10 02 05 00 01 01 11 07 B0 10 02 05 00 01 01 11 07
20250518T082535 | B0 03 00 08 00 44 DF DA
20250518T082535 | B0 03 00 44 03 01 00 B0 00 00 00 03 00 05 03 E8 04 B0 04 88 06 40 00 1E 00 00 05 8C 05 46 05 8C 00 00 02 58 00 00 05 A0 01 E0 04 C4 05 DC 0D AC 0B B8 00 02 00 01 00 00 00 FF 00 00 00 FF 00 00 00 FF 00 00 00 64 00 FF 39 65
20250518T082535 | B0 03 01 00 00 58 5E 2D
20250518T082535 | B0 03 00 58 05 7D 00 00 00 00 00 00 05 38 00 00 05 34 00 00 05 36 01 06 00 62 00 27 00 F0 00 00 00 02 05 2A 00 20 08 E8 00 64 00 64 FF FF 00 00 00 00 00 F0 00 00 00 00 00 00 00 00 00 00 00 00 00 00 00 00 00 00 00 00 00 00 00 00 00 00 00 00 00 00 00 00 00 00 00 01 00 C0 FF FF CA E6
20250518T082536 | B0 03 00 40 00 26 DE 25 B0 03 00 26 00 03 00 03 00 03 00 01 00 01 00 01 00 01 00 01 00 00 00 00 00 00 00 00 00 00 00 00 00 00 00 00 00 64 00 64 00 64 D2 C9
20250518T082536 | C0 03 01 00 00 1E D4 EF C0 03 00 1E 00 00 00 00 04 B8 00 02 05 3D 01 CD 00 FA 00 08 04 AC 00 DC 00 D2 00 D2 00 90 20 08 00 07 B8 4C
20250518T082536 | C0 03 00 08 00 28 D4 C7 C0 03 00 28 01 15 00 C0 00 00 00 03 00 05 0B B8 04 B0 04 7E 06 40 00 0A 00 00 05 8C 05 46 05 8C 54 60 02 58 00 00 00 32 05 DC 0B B8 2A D9
20250518T082536 | C0 03 00 1C 00 80 95 7D
20250518T082537 | C0 03 00 80 FF FF F0 00 54 60 00 0A 00 01 00 00 00 00 00 0A 0B B8 00 00 00 2D 00 01 00 2D 01 2C 04 88 00 3C 04 B0 00 50 04 88 00 28 0A 6A 0A 55 0A 62 0A 6A 0A 6A 04 C5 05 DE 00 62 50 5A 00 50
20250518T082537 | 00 00 01 6C 00 00 00 00 05 A0 05 46 05 82 05 46 05 BE 05 46 05 F0 05 46 05 82 05 52 05 8C 05 46 05 8C 05 46 05 C8 05 46 05 BE 05 5A 00 01 00 00 00 14 00 3C 00 01 04 C4 04 B0 00 05 00 05 00 00 00 00 00 01 CA 49
20250518T082537 | F5 03 00 00 00 0B 11 79
20250518T082537 | F0 03 00 08 00 0C D1 2C
20250518T082537 | 7E FF A0 03 00 08 CD D7
20250518T082538 | 7E FF C1 03 00 08 D2 2B
20250518T082538 | 7E FF 41 03 00 08 FB EB
20250518T082538 | B0 03 00 08 00 44 DF DA
20250518T082538 | B0 03 00 44 03 01 00 B0 00 00 00 03 00 05 03 E8 04 B0 04 88 06 40 00 1E 00 00 05 8C 05 46 05 8C 00 00 02 58 00 00 05 A0 01 E0 04 C4 05 DC 0D AC 0B B8 00 02 00 01 00 00 00 FF 00 00 00 FF 00 00 00 FF 00 00 00 64 00 FF 39 65
20250518T082539 | B0 03 01 00 00 58 5E 2D
20250518T082539 | B0 03 00 58 05 76 00 00 00 00 00 00 05 30 00 00 05 2E 00 00 05 30 FF 76 00 62 10 B1 00 F0 00 00 00 02 05 26 00 20 08 E8 00 64 00 64 FF FF 00 00 00 00 00 F0 00 00 00 00 00 00 00 00 00 00 00 00 00 00 00 00 00 00 00 00 00 00 00 00 00 00 00 00 00 00 00 00 00 00 00 01 00 C0 FF FF 51 7E
20250518T082539 | B0 03 00 40 00 26 DE 25 B0 03 00 26 00 03 00 03 00 03 00 01 00 01 00 01 00 01 00 01 00 00 00 00 00 00 00 00 00 00 00 00 00 00 00 00 00 64 00 64 00 64 D2 C9
20250518T082539 | C0 03 01 00 00 1E D4 EF C0 03 00 1E 00 00 00 00 01 8E 00 02 05 2D 00 00 00 FA 00 08 01 8B 00 E6 00 D2 00 DC 00 90 20 08 00 07 D9 22
20250518T082540 | C0 03 00 08 00 28 D4 C7 C0 03 00 28 01 15 00 C0 00 00 00 03 00 05 0B B8 04 B0 04 7E 06 40 00 0A 00 00 05 8C 05 46 05 8C 54 60 02 58 00 00 00 32 05 DC 0B B8 2A D9
20250518T082540 | C0 03 00 1C 00 80 95 7D
20250518T082540 | C0 03 00 80 FF FF F0 00 54 60 00 0A 00 01 00 00 00 00 00 0A 0B B8 00 00 00 2D 00 01 00 2D 01 2C 04 88 00 3C 04 B0 00 50 04 88 00 28 0A 6A 0A 55 0A 62 0A 6A 0A 6A 04 C5 05 DE 00 62 50 5A 00 50
20250518T082540 | 00 00 01 B3 00 00 00 00 05 A0 05 46 05 82 05 46 05 BE 05 46 05 F0 05 46 05 82 05 52 05 8C 05 46 05 8C 05 46 05 C8 05 46 05 BE 05 5A 00 01 00 00 00 14 00 3C 00 01 04 C4 04 B0 00 05 00 05 00 00 00 00 00 01 82 6F
20250518T082540 | F5 03 00 00 00 0B 11 79
20250518T082541 | F0 03 00 08 00 0C D1 2C
20250518T082541 | 7E FF A0 03 00 08 CD D7
20250518T082541 | 7E FF C1 03 00 08 D2 2B
20250518T082541 | B0 10 02 05 00 01 01 11 07 B0 10 02 05 00 01 01 11 07
20250518T082542 | B0 03 00 08 00 44 DF DA
20250518T082542 | B0 03 00 44 03 01 00 B0 00 00 00 03 00 05 03 E8 04 B0 04 88 06 40 00 1E 00 00 05 8C 05 46 05 8C 00 00 02 58 00 00 05 A0 01 E0 04 C4 05 DC 0D AC 0B B8 00 02 00 01 00 00 00 FF 00 00 00 FF 00 00 00 FF 00 00 00 64 00 FF 39 65
20250518T082542 | B0 03 01 00 00 58 5E 2D
20250518T082542 | B0 03 00 58 09 0F 00 00 00 00 00 00 05 2E 00 00 05 2C 00 BE 05 2E FF 42 00 62 0C 1F 00 F0 00 00 00 02 05 26 00 20 18 EB 00 64 00 64 FF FF 00 00 00 00 00 F0 00 00 00 00 00 00 00 00 00 00 00 00 00 00 00 00 00 00 00 00 00 00 00 00 00 00 00 00 00 00 00 00 00 00 00 01 00 C0 FF FF F3 DF
20250518T082543 | B0 03 00 40 00 26 DE 25 B0 03 00 26 00 03 00 03 00 03 00 01 00 01 00 01 00 01 00 01 00 00 00 00 00 00 00 00 00 00 00 00 00 00 00 00 00 64 00 64 00 64 D2 C9
20250518T082543 | C0 03 01 00 00 1E D4 EF C0 03 00 1E 00 00 00 00 01 82 00 02 05 2C 00 00 00 FA 00 08 01 7E 00 DC 00 D2 00 D2 00 80 00 0F 00 07 30 B2
20250518T082543 | C0 03 00 08 00 28 D4 C7 C0 03 00 28 01 15 00 C0 00 00 00 03 00 05 0B B8 04 B0 04 7E 06 40 00 0A 00 00 05 8C 05 46 05 8C 54 60 02 58 00 00 00 32 05 DC 0B B8 2A D9
20250518T082544 | C0 03 00 1C 00 80 95 7D
20250518T082544 | C0 03 00 80 FF FF F0 00 54 60 00 0A 00 01 00 00 00 00 00 0A 0B B8 00 00 00 2D 00 01 00 2D 01 2C 04 88 00 3C 04 B0 00 50 04 88 00 28 0A 6A 0A 55 0A 62 0A 6A 0A 6A 04 C5 05 DE 00 62 50 5A 00 50
20250518T082544 | 00 00 01 B3 00 00 00 00 05 A0 05 46 05 82 05 46 05 BE 05 46 05 F0 05 46 05 82 05 52 05 8C 05 46 05 8C 05 46 05 C8 05 46 05 BE 05 5A 00 01 00 00 00 14 00 3C 00 01 04 C4 04 B0 00 05 00 05 00 00 00 00 00 01 82 6F
20250518T082544 | F5 03 00 00 00 0B 11 79
20250518T082544 | F0 03 00 08 00 0C D1 2C
20250518T082545 | 7E FF A0 03 00 08 CD D7
20250518T082545 | 7E FF C1 03 00 08 D2 2B
20250518T082545 | 7E FF 41 03 00 08 FB EB
20250518T082545 | B0 03 00 08 00 44 DF DA
20250518T082546 | B0 03 00 44 03 01 00 B0 00 00 00 03 00 05 03 E8 04 B0 04 88 06 40 00 1E 00 00 05 8C 05 46 05 8C 00 00 02 58 00 00 05 A0 01 E0 04 C4 05 DC 0D AC 0B B8 00 02 00 01 00 00 00 FF 00 00 00 FF 00 00 00 FF 00 00 00 64 00 FF 39 65
20250518T082546 | B0 03 01 00 00 58 5E 2D
20250518T082546 | B0 03 00 58 06 D1 00 00 00 00 00 00 05 30 00 00 05 2E 00 75 05 30 FF 87 00 62 13 09 00 F0 00 00 00 02 05 26 00 20 08 E8 00 64 00 64 FF FF 00 00 00 00 00 F0 00 00 00 00 00 00 00 00 00 00 00 00 00 00 00 00 00 00 00 00 00 00 00 00 00 00 00 00 00 00 00 00 00 00 00 01 00 C0 FF FF 97 04
20250518T082546 | B0 03 00 40 00 26 DE 25 B0 03 00 26 00 03 00 03 00 03 00 01 00 01 00 01 00 01 00 01 00 00 00 00 00 00 00 00 00 00 00 00 00 00 00 00 00 64 00 64 00 64 D2 C9
20250518T082547 | C0 03 01 00 00 1E D4 EF C0 03 00 1E 00 00 00 00 01 73 00 02 05 2D 00 00 00 FA 00 08 01 6F 00 DC 00 D2 00 D2 00 80 00 0F 00 07 4E 4B
20250518T082547 | C0 03 00 08 00 28 D4 C7 C0 03 00 28 01 15 00 C0 00 00 00 03 00 05 0B B8 04 B0 04 7E 06 40 00 0A 00 00 05 8C 05 46 05 8C 54 60 02 58 00 00 00 32 05 DC 0B B8 2A D9
20250518T082547 | C0 03 00 1C 00 80 95 7D
20250518T082547 | C0 03 00 80 FF FF F0 00 54 60 00 0A 00 01 00 00 00 00 00 0A 0B B8 00 00 00 2D 00 01 00 2D 01 2C 04 88 00 3C 04 B0 00 50 04 88 00 28 0A 6A 0A 55 0A 62 0A 6A 0A 6A 04 C5 05 DE 00 62 50 5A 00 50
20250518T082547 | 00 00 01 B3 00 00 00 00 05 A0 05 46 05 82 05 46 05 BE 05 46 05 F0 05 46 05 82 05 52 05 8C 05 46 05 8C 05 46 05 C8 05 46 05 BE 05 5A 00 01 00 00 00 14 00 3C 00 01 04 C4 04 B0 00 05 00 05 00 00 00 00 00 01 82 6F
20250518T082548 | F5 03 00 00 00 0B 11 79
20250518T082548 | F0 03 00 08 00 0C D1 2C
20250518T082548 | 7E FF A0 03 00 08 CD D7
20250518T082548 | B0 10 02 05 00 01 00 D0 C7 B0 10 02 05 00 01 00 D0 C7
20250518T082549 | B0 03 00 08 00 44 DF DA
20250518T082549 | B0 03 00 44 03 01 00 B0 00 00 00 03 00 05 03 E8 04 B0 04 88 06 40 00 1E 00 00 05 8C 05 46 05 8C 00 00 02 58 00 00 05 A0 01 E0 04 C4 05 DC 0D AC 0B B8 00 02 00 01 00 00 00 FF 00 00 00 FF 00 00 00 FF 00 00 00 64 00 FF 39 65
20250518T082549 | B0 03 01 00 00 58 5E 2D
20250518T082549 | B0 03 00 58 05 75 00 00 00 00 00 00 03 ED 00 00 05 2D 00 6B 05 30 FF 94 00 62 15 53 00 F0 00 00 00 02 05 26 00 20 08 A8 00 64 00 64 FF FF 00 00 00 00 00 F0 00 00 00 00 00 00 00 00 00 00 00 00 00 00 00 00 00 00 00 00 00 00 00 00 00 00 00 00 00 00 00 00 00 00 00 01 00 C0 FF FF 4C 5A
20250518T082550 | B0 03 00 40 00 26 DE 25 B0 03 00 26 00 03 00 03 00 03 00 01 00 01 00 01 00 01 00 01 00 00 00 00 00 00 00 00 00 00 00 00 00 00 00 00 00 64 00 64 00 64 D2 C9
20250518T082550 | C0 03 01 00 00 1E D4 EF
20250518T082550 | C0 03 00 08 00 28 D4 C7
20250518T082551 | C0 03 00 1C 00 80 95 7D
20250518T082551 | F5 03 00 00 00 0B 11 79
20250518T082551 | F0 03 00 08 00 0C D1 2C
20250518T082551 | 7E FF A0 03 00 08 CD D7
20250518T082552 | 7E FF C1 03 00 08 D2 2B
20250518T082552 | 7E FF 41 03 00 08 FB EB
20250518T082552 | B0 03 00 08 00 44 DF DA
20250518T082552 | B0 03 00 44 03 01 00 B0 00 00 00 03 00 05 03 E8 04 B0 04 88 06 40 00 1E 00 00 05 8C 05 46 05 8C 00 00 02 58 00 00 05 A0 01 E0 04 C4 05 DC 0D AC 0B B8 00 02 00 01 00 00 00 FF 00 00 00 FF 00 00 00 FF 00 00 00 64 00 FF 39 65
20250518T082553 | B0 03 01 00 00 58 5E 2D B0 03 00 58 05 75 00 00 00 00 00 00 03 67 00 00 05 2E 00 66 05 30 FF 9A 00 62 16 94 00 F0 00 00 00 02 05 26 00 60 08 A8 00 64 00 64 FF FF 00 00 00 00 00 F0 00 00 00 00 00 00 00 00 00 00 00 00 00 00 00 00 00 00 00 00 00 00 00 00 00 00 00 00 00 00 00 00 00 00 00 01 00 C0 FF FF 28 63
20250518T082553 | B0 03 00 40 00 26 DE 25 B0 03 00 26 00 03 00 03 00 03 00 01 00 01 00 01 00 01 00 01 00 00 00 00 00 00 00 00 00 00 00 00 00 00 00 00 00 64 00 64 00 64 D2 C9
20250518T082553 | C0 03 01 00 00 1E D4 EF
20250518T082554 | C0 03 00 08 00 28 D4 C7
20250518T082554 | C0 03 00 1C 00 80 95 7D
20250518T082554 | 7E FF A0 03 00 08 CD D7
20250518T082554 | 7E FF C1 03 00 08 D2 2B
20250518T082555 | 7E FF 41 03 00 08 FB EB
20250518T082555 | B0 03 00 08 00 44 DF DA
20250518T082555 | B0 03 00 44 03 01 00 B0 00 00 00 03 00 05 03 E8 04 B0 04 88 06 40 00 1E 00 00 05 8C 05 46 05 8C 00 00 02 58 00 00 05 A0 01 E0 04 C4 05 DC 0D AC 0B B8 00 02 00 01 00 00 00 FF 00 00 00 FF 00 00 00 FF 00 00 00 64 00 FF 39 65
20250518T082555 | B0 03 01 00 00 58 5E 2D
20250518T082555 | B0 03 00 58 05 76 00 00 00 00 00 00 03 11 00 00 05 2E 00 4E 05 30 FF 9E 00 62 17 80 00 F0 00 00 00 02 05 26 00 60 08 A8 00 64 00 64 FF FF 00 00 00 00 00 F0 00 00 00 00 00 00 00 00 00 00 00 00 00 00 00 00 00 00 00 00 00 00 00 00 00 00 00 00 00 00 00 00 00 00 00 01 00 C0 FF FF DF F9
20250518T082556 | B0 03 00 40 00 26 DE 25 B0 03 00 26 00 03 00 03 00 03 00 01 00 01 00 01 00 01 00 01 00 00 00 00 00 00 00 00 00 00 00 00 00 00 00 00 00 64 00 64 00 64 D2 C9
20250518T082556 | C0 03 01 00 00 1E D4 EF
20250518T082556 | F5 03 00 00 00 0B 11 79
20250518T082557 | F0 03 00 08 00 0C D1 2C
20250518T082557 | 7E FF A0 03 00 08 CD D7
20250518T082557 | 7E FF C1 03 00 08 D2 2B
20250518T082557 | 7E FF 41 03 00 08 FB EB
20250518T082558 | B0 03 00 08 00 44 DF DA
20250518T082558 | B0 03 00 44 03 01 00 B0 00 00 00 03 00 05 03 E8 04 B0 04 88 06 40 00 1E 00 00 05 8C 05 46 05 8C 00 00 02 58 00 00 05 A0 01 E0 04 C4 05 DC 0D AC 0B B8 00 02 00 01 00 00 00 FF 00 00 00 FF 00 00 00 FF 00 00 00 64 00 FF 39 65
20250518T082558 | B0 03 01 00 00 58 5E 2D
20250518T082558 | B0 03 00 58 05 76 00 00 00 00 00 00 02 C4 00 00 05 2E 00 4D 05 30 FF 9F 00 62 17 BE 00 F0 00 00 00 02 05 26 00 60 08 A8 00 64 00 64 FF FF 00 00 00 00 00 FA 00 00 00 00 00 00 00 00 00 00 00 00 00 00 00 00 00 00 00 00 00 00 00 00 00 00 00 00 00 00 00 00 00 00 00 01 00 C0 FF FF 17 C1
20250518T082558 | B0 03 00 40 00 26 DE 25 B0 03 00 26 00 03 00 03 00 03 00 01 00 01 00 01 00 01 00 01 00 00 00 00 00 00 00 00 00 00 00 00 00 00 00 00 00 64 00 64 00 64 D2 C9
20250518T082559 | C0 03 01 00 00 1E D4 EF
20250518T082559 | F5 03 00 00 00 0B 11 79
20250518T082559 | B0 10 01 0E 00 02 00 01 52 AE B0 10 01 0E 00 02 00 01 52 AE
20250518T082600 | B0 03 00 08 00 44 DF DA
20250518T082600 | B0 03 00 44 03 01 00 B0 00 00 00 03 00 05 03 E8 04 B0 04 88 06 40 00 1E 00 00 05 8C 05 46 05 8C 00 00 02 58 00 00 05 A0 01 E0 04 C4 05 DC 0D AC 0B B8 00 02 00 01 00 00 00 FF 00 00 00 FF 00 00 00 FF 00 00 00 64 00 FF 39 65
20250518T082600 | B0 03 01 00 00 58 5E 2D
20250518T082600 | B0 03 00 58 05 76 00 00 00 00 00 00 02 90 00 00 05 2E 00 4B 05 30 FF A1 00 62 18 3E 00 F0 00 00 00 01 05 26 00 60 08 A8 00 64 00 64 FF FF 00 00 00 00 00 FA 00 00 00 00 00 00 00 00 00 00 00 00 00 00 00 00 00 00 00 00 00 00 00 00 00 00 00 00 00 00 00 00 00 00 00 01 00 C0 FF FF F8 5D
20250518T082601 | B0 03 00 40 00 26 DE 25 B0 03 00 26 00 03 00 03 00 03 00 01 00 01 00 01 00 01 00 01 00 00 00 00 00 00 00 00 00 00 00 00 00 00 00 00 00 64 00 64 00 64 D2 C9
20250518T082601 | C0 03 01 00 00 1E D4 EF
20250518T082601 | F5 03 00 00 00 0B 11 79
20250518T082601 | F0 03 00 08 00 0C D1 2C
20250518T082602 | 7E FF A0 03 00 08 CD D7
20250518T082602 | 7E FF C1 03 00 08 D2 2B
20250518T082602 | 7E FF 41 03 00 08 FB EB
20250518T082602 | B0 03 00 08 00 44 DF DA
20250518T082603 | B0 03 00 44 03 01 00 B0 00 00 00 03 00 05 03 E8 04 B0 04 88 06 40 00 1E 00 00 05 8C 05 46 05 8C 00 00 02 58 00 00 05 A0 01 E0 04 C4 05 DC 0D AC 0B B8 00 02 00 01 00 00 00 FF 00 00 00 FF 00 00 00 FF 00 00 00 64 00 FF 39 65
20250518T082603 | B0 03 01 00 00 58 5E 2D
20250518T082603 | B0 03 00 58 05 75 00 00 00 00 00 00 02 42 00 00 05 2E 00 70 05 30 FF A2 00 62 18 80 00 F0 00 00 00 02 05 26 00 60 08 A8 00 64 00 64 FF FF 00 00 00 00 00 FA 00 00 00 00 00 00 00 00 00 00 00 00 00 00 00 00 00 00 00 00 00 00 00 00 00 00 00 00 00 00 00 00 00 00 00 01 00 C0 FF FF 49 DB
20250518T082603 | B0 03 00 40 00 26 DE 25 B0 03 00 26 00 03 00 03 00 03 00 01 00 01 00 01 00 01 00 01 00 00 00 00 00 00 00 00 00 00 00 00 00 00 00 00 00 64 00 64 00 64 D2 C9
20250518T082603 | C0 03 01 00 00 1E D4 EF
20250518T082604 | F5 03 00 00 00 0B 11 79
20250518T082604 | F0 03 00 08 00 0C D1 2C
20250518T082604 | 7E FF A0 03 00 08 CD D7
20250518T082605 | 7E FF C1 03 00 08 D2 2B
20250518T082605 | 7E FF 41 03 00 08 FB EB
20250518T082605 | B0 03 00 08 00 44 DF DA
20250518T082605 | B0 03 00 44 03 01 00 B0 00 00 00 03 00 05 03 E8 04 B0 04 88 06 40 00 1E 00 00 05 8C 05 46 05 8C 00 00 02 58 00 00 05 A0 01 E0 04 C4 05 DC 0D AC 0B B8 00 02 00 01 00 00 00 FF 00 00 00 FF 00 00 00 FF 00 00 00 64 00 FF 39 65
20250518T082605 | B0 03 01 00 00 58 5E 2D
20250518T082606 | B0 03 00 58 05 76 00 00 00 00 00 00 02 0B 00 00 05 2E 00 85 05 30 FF A2 00 62 18 80 00 F0 00 00 00 02 05 26 00 60 08 A8 00 64 00 64 FF FF 00 00 00 00 00 FA 00 00 00 00 00 00 00 00 00 00 00 00 00 00 00 00 00 00 00 00 00 00 00 00 00 00 00 00 00 00 00 00 00 00 00 01 00 C0 FF FF B6 10
20250518T082606 | B0 03 00 40 00 26 DE 25 B0 03 00 26 00 03 00 03 00 03 00 01 00 01 00 01 00 01 00 01 00 00 00 00 00 00 00 00 00 00 00 00 00 00 00 00 00 64 00 64 00 64 D2 C9
20250518T082606 | C0 03 01 00 00 1E D4 EF
20250518T082606 | F5 03 00 00 00 0B 11 79
20250518T082607 | F0 03 00 08 00 0C D1 2C
20250518T082607 | 7E FF A0 03 00 08 CD D7
20250518T082607 | 7E FF C1 03 00 08 D2 2B
20250518T082608 | 7E FF 41 03 00 08 FB EB
20250518T082608 | B0 03 00 08 00 44 DF DA B0 03 00 44 03 01 00 B0 00 00 00 03 00 05 03 E8 04 B0 04 88 06 40 00 1E 00 00 05 8C 05 46 05 8C 00 00 02 58 00 00 05 A0 01 E0 04 C4 05 DC 0D AC 0B B8 00 02 00 01 00 00 00 FF 00 00 00 FF 00 00 00 FF 00 00 00 64 00 FF 39 65
20250518T082608 | B0 03 01 00 00 58 5E 2D
20250518T082608 | B0 03 00 58 05 76 00 00 00 00 00 00 01 D9 00 00 05 2E 00 87 05 30 FF A2 00 62 18 80 00 F0 00 00 00 02 05 26 00 60 08 A8 00 64 00 64 FF FF 00 00 00 00 00 FA 00 00 00 00 00 00 00 00 00 00 00 00 00 00 00 00 00 00 00 00 00 00 00 00 00 00 00 00 00 00 00 00 00 00 00 01 00 C0 FF FF 38 74
20250518T082609 | B0 03 00 40 00 26 DE 25 B0 03 00 26 00 03 00 03 00 03 00 01 00 01 00 01 00 01 00 01 00 00 00 00 00 00 00 00 00 00 00 00 00 00 00 00 00 64 00 64 00 64 D2 C9
20250518T082609 | C0 03 01 00 00 1E D4 EF
20250518T082609 | F5 03 00 00 00 0B 11 79
20250518T082609 | F0 03 00 08 00 0C D1 2C
20250518T082610 | 7E FF A0 03 00 08 CD D7
20250518T082610 | 7E FF C1 03 00 08 D2 2B
20250518T082610 | 7E FF 41 03 00 08 FB EB
20250518T082611 | B0 03 00 08 00 44 DF DA
20250518T082611 | B0 03 00 44 03 01 00 B0 00 00 00 03 00 05 03 E8 04 B0 04 88 06 40 00 1E 00 00 05 8C 05 46 05 8C 00 00 02 58 00 00 05 A0 01 E0 04 C4 05 DC 0D AC 0B B8 00 02 00 01 00 00 00 FF 00 00 00 FF 00 00 00 FF 00 00 00 64 00 FF 39 65
20250518T082611 | B0 03 01 00 00 58 5E 2D
20250518T082611 | B0 03 00 58 05 73 00 00 00 00 00 00 01 AC 00 00 05 2D 00 73 05 2F FF 9A 00 62 16 94 00 F0 00 00 00 02 05 27 00 60 08 A8 00 64 00 64 FF FF 00 00 00 00 00 FA 00 00 00 00 00 00 00 00 00 01 00 01 00 00 00 00 00 00 00 00 00 00 00 00 00 00 00 00 00 00 00 00 00 00 00 01 00 C0 FF FF 3B CC
20250518T082611 | B0 03 00 40 00 26 DE 25 B0 03 00 26 00 03 00 03 00 03 00 01 00 01 00 01 00 01 00 01 00 00 00 00 00 00 00 00 00 00 00 00 00 00 00 00 00 64 00 64 00 64 D2 C9
20250518T082612 | C0 03 01 00 00 1E D4 EF
20250518T082612 | F5 03 00 00 00 0B 11 79
20250518T082612 | F0 03 00 08 00 0C D1 2C
20250518T082612 | 7E FF A0 03 00 08 CD D7
20250518T082613 | 7E FF C1 03 00 08 D2 2B
20250518T082613 | 7E FF 41 03 00 08 FB EB
20250518T082613 | B0 03 00 08 00 44 DF DA
20250518T082613 | B0 03 00 44 03 01 00 B0 00 00 00 03 00 05 03 E8 04 B0 04 88 06 40 00 1E 00 00 05 8C 05 46 05 8C 00 00 02 58 00 00 05 A0 01 E0 04 C4 05 DC 0D AC 0B B8 00 02 00 01 00 00 00 FF 00 00 00 FF 00 00 00 FF 00 00 00 64 00 FF 39 65
20250518T082614 | B0 03 01 00 00 58 5E 2D B0 03 00 58 05 72 00 00 00 00 00 00 01 7A 00 00 05 2D 00 6A 05 2F FF 97 00 62 15 EF 00 F0 00 00 00 02 05 27 00 60 08 A8 00 64 00 64 FF FF 00 00 00 00 00 FA 00 00 00 00 00 00 00 00 00 01 00 01 00 00 00 00 00 00 00 00 00 00 00 00 00 00 00 00 00 00 00 00 00 00 00 01 00 C0 FF FF AF D0
20250518T082614 | B0 03 00 40 00 26 DE 25 B0 03 00 26 00 03 00 03 00 03 00 01 00 01 00 01 00 01 00 01 00 00 00 00 00 00 00 00 00 00 00 00 00 00 00 00 00 64 00 64 00 64 D2 C9
20250518T082614 | C0 03 01 00 00 1E D4 EF
20250518T082615 | F5 03 00 00 00 0B 11 79
20250518T082615 | F0 03 00 08 00 0C D1 2C
20250518T082615 | 7E FF A0 03 00 08 CD D7
20250518T082615 | 7E FF C1 03 00 08 D2 2B
20250518T082616 | 7E FF 41 03 00 08 FB EB
20250518T082616 | B0 03 00 08 00 44 DF DA
20250518T082616 | B0 03 00 44 03 01 00 B0 00 00 00 03 00 05 03 E8 04 B0 04 88 06 40 00 1E 00 00 05 8C 05 46 05 8C 00 00 02 58 00 00 05 A0 01 E0 04 C4 05 DC 0D AC 0B B8 00 02 00 01 00 00 00 FF 00 00 00 FF 00 00 00 FF 00 00 00 64 00 FF 39 65
20250518T082616 | B0 03 01 00 00 58 5E 2D
20250518T082616 | B0 03 00 58 05 72 00 00 00 00 00 00 01 56 00 00 05 2D 00 69 05 2F FF 97 00 62 15 EF 00 F0 00 00 00 02 05 27 00 60 08 A8 00 64 00 64 FF FF 00 00 00 00 00 FA 00 00 00 00 00 00 00 00 00 01 00 01 00 00 00 00 00 00 00 00 00 00 00 00 00 00 00 00 00 00 00 00 00 00 00 01 00 C0 FF FF 0C F9
20250518T082617 | B0 03 00 40 00 26 DE 25 B0 03 00 26 00 03 00 03 00 03 00 01 00 01 00 01 00 01 00 01 00 00 00 00 00 00 00 00 00 00 00 00 00 00 00 00 00 64 00 64 00 64 D2 C9
20250518T082617 | C0 03 01 00 00 1E D4 EF
20250518T082617 | F5 03 00 00 00 0B 11 79
20250518T082618 | F0 03 00 08 00 0C D1 2C
20250518T082618 | 7E FF A0 03 00 08 CD D7
20250518T082618 | 7E FF C1 03 00 08 D2 2B
20250518T082618 | 7E FF 41 03 00 08 FB EB
20250518T082619 | B0 03 00 08 00 44 DF DA
20250518T082619 | B0 03 00 44 03 01 00 B0 00 00 00 03 00 05 03 E8 04 B0 04 88 06 40 00 1E 00 00 05 8C 05 46 05 8C 00 00 02 58 00 00 05 A0 01 E0 04 C4 05 DC 0D AC 0B B8 00 02 00 01 00 00 00 FF 00 00 00 FF 00 00 00 FF 00 00 00 64 00 FF 39 65
20250518T082619 | B0 03 01 00 00 58 5E 2D
20250518T082619 | B0 03 00 58 09 4A 00 00 00 00 00 00 01 36 00 00 05 2B 00 84 05 2D FF 7C 00 62 0C A7 00 F0 00 00 00 02 05 25 00 60 18 AB 00 64 00 64 FF FF 00 00 00 00 00 FA 00 00 00 00 00 00 00 00 00 01 00 01 00 00 00 00 00 00 00 00 00 00 00 00 00 00 00 00 00 00 00 00 00 00 00 01 00 C0 FF FF 58 EB
20250518T082619 | B0 03 00 40 00 26 DE 25 B0 03 00 26 00 03 00 03 00 03 00 01 00 01 00 01 00 01 00 01 00 00 00 00 00 00 00 00 00 00 00 00 00 00 00 00 00 64 00 64 00 64 D2 C9
20250518T082620 | C0 03 01 00 00 1E D4 EF
20250518T082620 | F5 03 00 00 00 0B 11 79
20250518T082620 | F0 03 00 08 00 0C D1 2C
20250518T082621 | 7E FF A0 03 00 08 CD D7
20250518T082621 | 7E FF C1 03 00 08 D2 2B
20250518T082621 | 7E FF 41 03 00 08 FB EB
20250518T082621 | B0 03 00 08 00 44 DF DA B0 03 00 44 03 01 00 B0 00 00 00 03 00 05 03 E8 04 B0 04 88 06 40 00 1E 00 00 05 8C 05 46 05 8C 00 00 02 58 00 00 05 A0 01 E0 04 C4 05 DC 0D AC 0B B8 00 02 00 01 00 00 00 FF 00 00 00 FF 00 00 00 FF 00 00 00 64 00 FF 39 65
20250518T082622 | B0 03 01 00 00 58 5E 2D
20250518T082622 | B0 03 00 58 07 C8 00 4A 00 00 00 00 01 19 00 00 05 2E 00 96 05 30 FF B5 00 62 27 0F 00 F0 00 00 00 02 05 26 00 60 08 A8 00 64 00 64 FF FF 00 00 00 00 00 FA 00 00 00 00 00 00 00 00 00 01 00 01 00 00 00 00 00 00 00 00 00 00 00 00 00 00 00 00 00 00 00 00 00 00 00 01 00 C0 FF FF C6 71
20250518T082622 | B0 03 00 40 00 26 DE 25
20250518T082622 | B0 03 00 26 00 03 00 03 00 03 00 01 00 01 00 01 00 01 00 01 00 00 00 00 00 00 00 00 00 00 00 00 00 00 00 00 00 64 00 64 00 64 D2 C9
20250518T082622 | C0 03 01 00 00 1E D4 EF
20250518T082623 | F5 03 00 00 00 0B 11 79
20250518T082623 | F0 03 00 08 00 0C D1 2C
20250518T082623 | 7E FF A0 03 00 08 CD D7
20250518T082624 | 7E FF C1 03 00 08 D2 2B
20250518T082624 | 7E FF 41 03 00 08 FB EB
20250518T082624 | B0 03 00 08 00 44 DF DA
20250518T082624 | B0 03 00 44 03 01 00 B0 00 00 00 03 00 05 03 E8 04 B0 04 88 06 40 00 1E 00 00 05 8C 05 46 05 8C 00 00 02 58 00 00 05 A0 01 E0 04 C4 05 DC 0D AC 0B B8 00 02 00 01 00 00 00 FF 00 00 00 FF 00 00 00 FF 00 00 00 64 00 FF 39 65
20250518T082624 | B0 03 01 00 00 58 5E 2D
20250518T082625 | B0 03 00 58 05 DE 00 2E 00 00 00 00 00 FF 00 00 05 2D 00 91 05 2F FF 9D 00 62 17 43 00 F0 00 00 00 02 05 27 00 60 08 A8 00 64 00 64 FF FF 00 00 00 00 00 FA 00 00 00 00 00 00 00 00 00 01 00 01 00 00 00 00 00 00 00 00 00 00 00 00 00 00 00 00 00 00 00 00 00 00 00 01 00 C0 FF FF 92 0C
20250518T082625 | B0 03 00 40 00 26 DE 25 B0 03 00 26 00 03 00 03 00 03 00 01 00 01 00 01 00 01 00 01 00 00 00 00 00 00 00 00 00 00 00 00 00 00 00 00 00 64 00 64 00 64 D2 C9
20250518T082625 | C0 03 01 00 00 1E D4 EF
20250518T082625 | F5 03 00 00 00 0B 11 79
20250518T082626 | F0 03 00 08 00 0C D1 2C
20250518T082626 | 7E FF A0 03 00 08 CD D7
20250518T082626 | 7E FF C1 03 00 08 D2 2B
20250518T082626 | 7E FF 41 03 00 08 FB EB
20250518T082627 | B0 03 00 08 00 44 DF DA B0 03 00 44 03 01 00 B0 00 00 00 03 00 05 03 E8 04 B0 04 88 06 40 00 1E 00 00 05 8C 05 46 05 8C 00 00 02 58 00 00 05 A0 01 E0 04 C4 05 DC 0D AC 0B B8 00 02 00 01 00 00 00 FF 00 00 00 FF 00 00 00 FF 00 00 00 64 00 FF 39 65
20250518T082627 | B0 03 01 00 00 58 5E 2D
20250518T082627 | B0 03 00 58 05 72 00 00 00 00 00 00 00 E2 00 00 05 2D 00 69 05 2F FF 97 00 62 15 EF 00 F0 00 00 00 02 05 27 00 60 08 A8 00 64 00 64 FF FF 00 00 00 00 00 FA 00 00 00 00 00 00 00 00 00 01 00 01 00 00 00 00 00 00 00 00 00 00 00 00 00 00 00 00 00 00 00 00 00 00 00 01 00 C0 FF FF F7 17
20250518T082628 | B0 03 00 40 00 26 DE 25 B0 03 00 26 00 03 00 03 00 03 00 01 00 01 00 01 00 01 00 01 00 00 00 00 00 00 00 00 00 00 00 00 00 00 00 00 00 64 00 64 00 64 D2 C9
20250518T082628 | C0 03 01 00 00 1E D4 EF
20250518T082628 | F5 03 00 00 00 0B 11 79
20250518T082628 | F0 03 00 08 00 0C D1 2C
20250518T082629 | 7E FF A0 03 00 08 CD D7
20250518T082629 | 7E FF C1 03 00 08 D2 2B
20250518T082629 | B0 10 01 0E 00 02 00 01 52 AE B0 10 01 0E 00 02 00 01 52 AE
20250518T082630 | B0 03 00 08 00 44 DF DA
20250518T082630 | B0 03 00 44 03 01 00 B0 00 00 00 03 00 05 03 E8 04 B0 04 88 06 40 00 1E 00 00 05 8C 05 46 05 8C 00 00 02 58 00 00 05 A0 01 E0 04 C4 05 DC 0D AC 0B B8 00 02 00 01 00 00 00 FF 00 00 00 FF 00 00 00 FF 00 00 00 64 00 FF 39 65
20250518T082630 | B0 03 01 00 00 58 5E 2D
20250518T082630 | B0 03 00 58 05 72 00 00 00 00 00 00 00 CD 00 00 05 2D 00 6A 05 2F FF 96 00 62 15 BA 00 F0 00 00 00 01 05 25 00 60 08 A8 00 64 00 64 FF FF 00 00 00 00 00 FA 00 00 00 00 00 00 00 00 00 01 00 01 00 00 00 00 00 00 00 00 00 00 00 00 00 00 00 00 00 00 00 00 00 00 00 01 00 C0 FF FF 0B 94
20250518T082631 | B0 03 00 40 00 26 DE 25 B0 03 00 26 00 03 00 03 00 03 00 01 00 01 00 01 00 01 00 01 00 00 00 00 00 00 00 00 00 00 00 00 00 00 00 00 00 64 00 64 00 64 D2 C9
20250518T082631 | C0 03 01 00 00 1E D4 EF
20250518T082631 | F5 03 00 00 00 0B 11 79
20250518T082631 | F0 03 00 08 00 0C D1 2C
20250518T082632 | 7E FF A0 03 00 08 CD D7
20250518T082632 | 7E FF C1 03 00 08 D2 2B
20250518T082632 | 7E FF 41 03 00 08 FB EB
20250518T082632 | B0 03 00 08 00 44 DF DA
20250518T082632 | B0 03 00 44 03 01 00 B0 00 00 00 03 00 05 03 E8 04 B0 04 88 06 40 00 1E 00 00 05 8C 05 46 05 8C 00 00 02 58 00 00 05 A0 01 E0 04 C4 05 DC 0D AC 0B B8 00 02 00 01 00 00 00 FF 00 00 00 FF 00 00 00 FF 00 00 00 64 00 FF 39 65
20250518T082633 | B0 03 01 00 00 58 5E 2D B0 03 00 58 05 72 00 00 00 00 00 00 00 BC 00 00 05 2D 00 68 05 2F FF 98 00 62 16 24 00 F0 00 00 00 02 05 25 00 60 08 A8 00 64 00 64 FF FF 00 00 00 00 00 FA 00 00 00 00 00 00 00 00 00 01 00 01 00 00 00 00 00 00 00 00 00 00 00 00 00 00 00 00 00 00 00 00 00 00 00 01 00 C0 FF FF 76 90
20250518T082633 | B0 03 00 40 00 26 DE 25 B0 03 00 26 00 03 00 03 00 03 00 01 00 01 00 01 00 01 00 01 00 00 00 00 00 00 00 00 00 00 00 00 00 00 00 00 00 64 00 64 00 64 D2 C9
20250518T082633 | C0 03 01 00 00 1E D4 EF
20250518T082634 | F5 03 00 00 00 0B 11 79
20250518T082634 | F0 03 00 08 00 0C D1 2C
20250518T082634 | 7E FF A0 03 00 08 CD D7
20250518T082635 | 7E FF C1 03 00 08 D2 2B
20250518T082635 | 7E FF 41 03 00 08 FB EB
20250518T082635 | B0 03 00 08 00 44 DF DA
20250518T082635 | B0 03 00 44 03 01 00 B0 00 00 00 03 00 05 03 E8 04 B0 04 88 06 40 00 1E 00 00 05 8C 05 46 05 8C 00 00 02 58 00 00 05 A0 01 E0 04 C4 05 DC 0D AC 0B B8 00 02 00 01 00 00 00 FF 00 00 00 FF 00 00 00 FF 00 00 00 64 00 FF 39 65
20250518T082635 | B0 03 01 00 00 58 5E 2D
20250518T082636 | B0 03 00 58 05 72 00 00 00 00 00 00 00 AB 00 00 05 2D 00 69 05 2F FF 97 00 62 15 EE 00 F0 00 00 00 02 05 25 00 60 08 A8 00 64 00 64 FF FF 00 00 00 00 00 FA 00 00 00 00 00 00 00 00 00 01 00 01 00 00 00 00 00 00 00 00 00 00 00 00 00 00 00 00 00 00 00 00 00 00 00 01 00 C0 FF FF ED 9A
20250518T082636 | B0 03 00 40 00 26 DE 25 B0 03 00 26 00 03 00 03 00 03 00 01 00 01 00 01 00 01 00 01 00 00 00 00 00 00 00 00 00 00 00 00 00 00 00 00 00 64 00 64 00 64 D2 C9
20250518T082636 | C0 03 01 00 00 1E D4 EF
20250518T082636 | F5 03 00 00 00 0B 11 79
20250518T082637 | F0 03 00 08 00 0C D1 2C
20250518T082637 | 7E FF A0 03 00 08 CD D7
20250518T082637 | 7E FF C1 03 00 08 D2 2B
20250518T082638 | 7E FF 41 03 00 08 FB EB
20250518T082638 | B0 03 00 08 00 44 DF DA
20250518T082638 | B0 03 00 44 03 01 00 B0 00 00 00 03 00 05 03 E8 04 B0 04 88 06 40 00 1E 00 00 05 8C 05 46 05 8C 00 00 02 58 00 00 05 A0 01 E0 04 C4 05 DC 0D AC 0B B8 00 02 00 01 00 00 00 FF 00 00 00 FF 00 00 00 FF 00 00 00 64 00 FF 39 65
20250518T082638 | B0 03 01 00 00 58 5E 2D
20250518T082638 | B0 03 00 58 05 72 00 00 00 00 00 00 00 9E 00 00 05 2D 00 68 05 2F FF 98 00 62 16 24 00 F0 00 00 00 02 05 25 00 60 08 A8 00 64 00 64 FF FF 00 00 00 00 00 FA 00 00 00 00 00 00 00 00 00 01 00 01 00 00 00 00 00 00 00 00 00 00 00 00 00 00 00 00 00 00 00 00 00 00 00 01 00 C0 FF FF 87 8F
20250518T082639 | B0 03 00 40 00 26 DE 25 B0 03 00 26 00 03 00 03 00 03 00 01 00 01 00 01 00 01 00 01 00 00 00 00 00 00 00 00 00 00 00 00 00 00 00 00 00 64 00 64 00 64 D2 C9
20250518T082639 | C0 03 01 00 00 1E D4 EF
20250518T082639 | F5 03 00 00 00 0B 11 79
20250518T082639 | F0 03 00 08 00 0C D1 2C
20250518T082640 | 7E FF A0 03 00 08 CD D7
20250518T082640 | 7E FF C1 03 00 08 D2 2B
20250518T082640 | 7E FF 41 03 00 08 FB EB
20250518T082641 | B0 03 00 08 00 44 DF DA
20250518T082641 | B0 03 00 44 03 01 00 B0 00 00 00 03 00 05 03 E8 04 B0 04 88 06 40 00 1E 00 00 05 8C 05 46 05 8C 00 00 02 58 00 00 05 A0 01 E0 04 C4 05 DC 0D AC 0B B8 00 02 00 01 00 00 00 FF 00 00 00 FF 00 00 00 FF 00 00 00 64 00 FF 39 65
20250518T082641 | B0 03 01 00 00 58 5E 2D
20250518T082641 | B0 03 00 58 05 71 00 00 00 00 00 00 00 93 00 00 05 2D 00 68 05 2F FF 98 00 62 16 24 00 F0 00 00 00 02 05 25 00 60 08 A8 00 64 00 64 FF FF 00 00 00 00 00 FA 00 00 00 00 00 00 00 00 00 01 00 01 00 00 00 00 00 00 00 00 00 00 00 00 00 00 00 00 00 00 00 00 00 00 00 01 00 C0 FF FF 81 ED
20250518T082641 | B0 03 00 40 00 26 DE 25 B0 03 00 26 00 03 00 03 00 03 00 01 00 01 00 01 00 01 00 01 00 00 00 00 00 00 00 00 00 00 00 00 00 00 00 00 00 64 00 64 00 64 D2 C9
20250518T082642 | C0 03 01 00 00 1E D4 EF
20250518T082642 | F5 03 00 00 00 0B 11 79
20250518T082642 | F0 03 00 08 00 0C D1 2C
20250518T082642 | 7E FF A0 03 00 08 CD D7
20250518T082643 | 7E FF C1 03 00 08 D2 2B
20250518T082643 | 7E FF 41 03 00 08 FB EB
20250518T082643 | B0 03 00 08 00 44 DF DA B0 03 00 44 03 01 00 B0 00 00 00 03 00 05 03 E8 04 B0 04 88 06 40 00 1E 00 00 05 8C 05 46 05 8C 00 00 02 58 00 00 05 A0 01 E0 04 C4 05 DC 0D AC 0B B8 00 02 00 01 00 00 00 FF 00 00 00 FF 00 00 00 FF 00 00 00 64 00 FF 39 65
20250518T082644 | B0 03 01 00 00 58 5E 2D
20250518T082644 | B0 03 00 58 05 72 00 00 00 00 00 00 00 89 00 00 05 2D 00 68 05 2F FF 98 00 62 16 24 00 F0 00 00 00 02 05 25 00 60 08 A8 00 64 00 64 FF FF 00 00 00 00 00 FA 00 00 00 00 00 00 00 00 00 01 00 01 00 00 00 00 00 00 00 00 00 00 00 00 00 00 00 00 00 00 00 00 00 00 00 01 00 C0 FF FF 5D 22
20250518T082644 | B0 03 00 40 00 26 DE 25 B0 03 00 26 00 03 00 03 00 03 00 01 00 01 00 01 00 01 00 01 00 00 00 00 00 00 00 00 00 00 00 00 00 00 00 00 00 64 00 64 00 64 D2 C9
20250518T082644 | C0 03 01 00 00 1E D4 EF
20250518T082645 | F5 03 00 00 00 0B 11 79
20250518T082645 | F0 03 00 08 00 0C D1 2C
20250518T082645 | 7E FF A0 03 00 08 CD D7
20250518T082645 | 7E FF C1 03 00 08 D2 2B
20250518T082646 | 7E FF 41 03 00 08 FB EB
20250518T082646 | B0 03 00 08 00 44 DF DA
20250518T082646 | B0 03 00 44 03 01 00 B0 00 00 00 03 00 05 03 E8 04 B0 04 88 06 40 00 1E 00 00 05 8C 05 46 05 8C 00 00 02 58 00 00 05 A0 01 E0 04 C4 05 DC 0D AC 0B B8 00 02 00 01 00 00 00 FF 00 00 00 FF 00 00 00 FF 00 00 00 64 00 FF 39 65
20250518T082646 | B0 03 01 00 00 58 5E 2D
20250518T082646 | B0 03 00 58 05 72 00 00 00 00 00 00 00 7D 00 00 05 2D 00 68 05 2F FF 98 00 62 16 24 00 F0 00 00 00 02 05 27 00 60 08 A8 00 64 00 64 FF FF 00 00 00 00 00 FA 00 00 00 00 00 00 00 00 00 01 00 01 00 00 00 00 00 00 00 00 00 00 00 00 00 00 00 00 00 00 00 00 00 00 00 01 00 C0 FF FF 99 F2
20250518T082647 | B0 03 00 40 00 26 DE 25 B0 03 00 26 00 03 00 03 00 03 00 01 00 01 00 01 00 01 00 01 00 00 00 00 00 00 00 00 00 00 00 00 00 00 00 00 00 64 00 64 00 64 D2 C9
20250518T082647 | C0 03 01 00 00 1E D4 EF
20250518T082647 | F5 03 00 00 00 0B 11 79
20250518T082648 | F0 03 00 08 00 0C D1 2C
20250518T082648 | 7E FF A0 03 00 08 CD D7
20250518T082648 | 7E FF C1 03 00 08 D2 2B
20250518T082648 | 7E FF 41 03 00 08 FB EB
20250518T082649 | B0 03 00 08 00 44 DF DA B0 03 00 44 03 01 00 B0 00 00 00 03 00 05 03 E8 04 B0 04 88 06 40 00 1E 00 00 05 8C 05 46 05 8C 00 00 02 58 00 00 05 A0 01 E0 04 C4 05 DC 0D AC 0B B8 00 02 00 01 00 00 00 FF 00 00 00 FF 00 00 00 FF 00 00 00 64 00 FF 39 65
20250518T082649 | B0 03 01 00 00 58 5E 2D
20250518T082649 | B0 03 00 58 05 72 00 00 00 00 00 00 00 74 00 00 05 2D 00 68 05 2F FF 98 00 62 16 24 00 F0 00 00 00 02 05 25 00 60 08 A8 00 64 00 64 FF FF 00 00 00 00 00 FA 00 00 00 00 00 00 00 00 00 01 00 01 00 00 00 00 00 00 00 00 00 00 00 00 00 00 00 00 00 00 00 00 00 00 00 01 00 C0 FF FF 92 D3
20250518T082649 | B0 03 00 40 00 26 DE 25 B0 03 00 26 00 03 00 03 00 03 00 01 00 01 00 01 00 01 00 01 00 00 00 00 00 00 00 00 00 00 00 00 00 00 00 00 00 64 00 64 00 64 D2 C9
20250518T082650 | C0 03 01 00 00 1E D4 EF
20250518T082650 | F5 03 00 00 00 0B 11 79
20250518T082650 | F0 03 00 08 00 0C D1 2C
20250518T082651 | 7E FF A0 03 00 08 CD D7
20250518T082651 | 7E FF C1 03 00 08 D2 2B
20250518T082651 | 7E FF 41 03 00 08 FB EB
20250518T082651 | B0 03 00 08 00 44 DF DA
20250518T082651 | B0 03 00 44 03 01 00 B0 00 00 00 03 00 05 03 E8 04 B0 04 88 06 40 00 1E 00 00 05 8C 05 46 05 8C 00 00 02 58 00 00 05 A0 01 E0 04 C4 05 DC 0D AC 0B B8 00 02 00 01 00 00 00 FF 00 00 00 FF 00 00 00 FF 00 00 00 64 00 FF 39 65
20250518T082652 | B0 03 01 00 00 58 5E 2D
20250518T082652 | B0 03 00 58 05 72 00 00 00 00 00 00 00 6C 00 00 05 2D 00 68 05 2F FF 97 00 62 15 EE 00 F0 00 00 00 02 05 25 00 60 08 A8 00 64 00 64 FF FF 00 00 00 00 00 FA 00 00 00 00 00 00 00 00 00 01 00 01 00 00 00 00 00 00 00 00 00 00 00 00 00 00 00 00 00 00 00 00 00 00 00 01 00 C0 FF FF 0D AD
20250518T082652 | B0 03 00 40 00 26 DE 25 B0 03 00 26 00 03 00 03 00 03 00 01 00 01 00 01 00 01 00 01 00 00 00 00 00 00 00 00 00 00 00 00 00 00 00 00 00 64 00 64 00 64 D2 C9
20250518T082652 | C0 03 01 00 00 1E D4 EF
20250518T082653 | F5 03 00 00 00 0B 11 79
20250518T082653 | F0 03 00 08 00 0C D1 2C
20250518T082653 | 7E FF A0 03 00 08 CD D7
20250518T082653 | 7E FF C1 03 00 08 D2 2B
20250518T082654 | 7E FF 41 03 00 08 FB EB
20250518T082654 | B0 03 00 08 00 44 DF DA
20250518T082654 | B0 03 00 44 03 01 00 B0 00 00 00 03 00 05 03 E8 04 B0 04 88 06 40 00 1E 00 00 05 8C 05 46 05 8C 00 00 02 58 00 00 05 A0 01 E0 04 C4 05 DC 0D AC 0B B8 00 02 00 01 00 00 00 FF 00 00 00 FF 00 00 00 FF 00 00 00 64 00 FF 39 65
20250518T082654 | B0 03 01 00 00 58 5E 2D
20250518T082655 | B0 03 00 58 05 72 00 00 00 00 00 00 00 65 00 00 05 2D 00 68 05 2F FF 98 00 62 16 24 00 F0 00 00 00 02 05 25 00 60 18 AB 00 64 00 64 FF FF 00 00 00 00 00 FA 00 00 00 00 00 00 00 00 00 01 00 01 00 00 00 00 00 00 00 00 00 00 00 00 00 00 00 00 00 00 00 00 00 00 00 01 00 C0 FF FF 98 78
20250518T082655 | B0 03 00 40 00 26 DE 25 B0 03 00 26 00 03 00 03 00 03 00 01 00 01 00 01 00 01 00 01 00 00 00 00 00 00 00 00 00 00 00 00 00 00 00 00 00 64 00 64 00 64 D2 C9
20250518T082655 | C0 03 01 00 00 1E D4 EF
20250518T082655 | F5 03 00 00 00 0B 11 79
20250518T082656 | F0 03 00 08 00 0C D1 2C
20250518T082656 | 7E FF A0 03 00 08 CD D7
20250518T082656 | 7E FF C1 03 00 08 D2 2B
20250518T082656 | 7E FF 41 03 00 08 FB EB
20250518T082657 | B0 03 00 08 00 44 DF DA B0 03 00 44 03 01 00 B0 00 00 00 03 00 05 03 E8 04 B0 04 88 06 40 00 1E 00 00 05 8C 05 46 05 8C 00 00 02 58 00 00 05 A0 01 E0 04 C4 05 DC 0D AC 0B B8 00 02 00 01 00 00 00 FF 00 00 00 FF 00 00 00 FF 00 00 00 64 00 FF 39 65
