20250518T082321 | 74 | B0 03 00 44 03 01 00 B0 00 00 00 03 00 05 03 E8 04 B0 04 88 06 40 00 1E 00 00 05 8C 05 46 05 8C 00 00 02 58 00 00 05 A0 01 E0 04 C4 05 DC 0D AC 0B B8 00 02 00 01 00 00 00 FF 00 00 00 FF 00 00 00 FF 00 00 00 64 00 FF 39 65 | {}
20250518T082322 | 94 | B0 03 00 58 05 70 00 00 00 00 00 00 00 00 00 00 05 2A 00 87 05 2C FF 79 00 62 11 0C 00 F0 00 00 00 02 05 23 00 00 08 A8 00 64 00 64 FF FF 00 00 00 00 00 F0 00 00 00 00 00 00 00 00 00 01 00 01 00 00 00 00 00 00 00 00 00 00 00 00 00 00 00 00 00 00 00 00 00 00 00 01 00 C0 FF FF CC 78 | {'solar_input_current': 0.0, 'solar_input_voltage_TBC': 13.92, 'aux_input_voltage_TBC': 0.0, 'aux_input_current': 0.0, 'output_voltage': 13.22, 'output_current': 1.35, 'battery_voltage': 13.24, 'battery_current': -1.35, 'battery_soc': 98, 'fresh_tank_1_pc': 100, 'fresh_tank_2_pc': 100}
20250518T082322 | 52 | B0 03 00 40 00 26 DE 25 B0 03 00 26 00 03 00 03 00 03 00 01 00 01 00 01 00 01 00 01 00 00 00 00 00 00 00 00 00 00 00 00 00 00 00 00 00 64 00 64 00 64 D2 C9 | {}
20250518T082324 | 74 | B0 03 00 44 03 01 00 B0 00 00 00 03 00 05 03 E8 04 B0 04 88 06 40 00 1E 00 00 05 8C 05 46 05 8C 00 00 02 58 00 00 05 A0 01 E0 04 C4 05 DC 0D AC 0B B8 00 02 00 01 00 00 00 FF 00 00 00 FF 00 00 00 FF 00 00 00 64 00 FF 39 65 | {}
20250518T082324 | 94 | B0 03 00 58 05 70 00 00 00 00 00 00 00 00 00 00 05 2A 00 85 05 2C FF 7B 00 62 11 4D 00 F0 00 00 00 02 05 23 00 00 08 A8 00 64 00 64 FF FF 00 00 00 00 00 F0 00 00 00 00 00 00 00 00 00 01 00 01 00 00 00 00 00 00 00 00 00 00 00 00 00 00 00 00 00 00 00 00 00 00 00 01 00 C0 FF FF 74 24 | {'solar_input_current': 0.0, 'solar_input_voltage_TBC': 13.92, 'aux_input_voltage_TBC': 0.0, 'aux_input_current': 0.0, 'output_voltage': 13.22, 'output_current': 1.33, 'battery_voltage': 13.24, 'battery_current': -1.33, 'battery_soc': 98, 'fresh_tank_1_pc': 100, 'fresh_tank_2_pc': 100}
20250518T082325 | 52 | B0 03 00 40 00 26 DE 25 B0 03 00 26 00 03 00 03 00 03 00 01 00 01 00 01 00 01 00 01 00 00 00 00 00 00 00 00 00 00 00 00 00 00 00 00 00 64 00 64 00 64 D2 C9 | {}
20250518T082327 | 74 | B0 03 00 44 03 01 00 B0 00 00 00 03 00 05 03 E8 04 B0 04 88 06 40 00 1E 00 00 05 8C 05 46 05 8C 00 00 02 58 00 00 05 A0 01 E0 04 C4 05 DC 0D AC 0B B8 00 02 00 01 00 00 00 FF 00 00 00 FF 00 00 00 FF 00 00 00 64 00 FF 39 65 | {}
20250518T082327 | 94 | B0 03 00 58 05 70 00 00 00 00 00 00 00 00 00 00 05 2A 00 84 05 2C FF 7C 00 62 11 6F 00 F0 00 00 00 02 05 23 00 00 08 A8 00 64 00 64 FF FF 00 00 00 00 00 F0 00 00 00 00 00 00 00 00 00 01 00 01 00 00 00 00 00 00 00 00 00 00 00 00 00 00 00 00 00 00 00 00 00 00 00 01 00 C0 FF FF 72 E4 | {'solar_input_current': 0.0, 'solar_input_voltage_TBC': 13.92, 'aux_input_voltage_TBC': 0.0, 'aux_input_current': 0.0, 'output_voltage': 13.22, 'output_current': 1.32, 'battery_voltage': 13.24, 'battery_current': -1.32, 'battery_soc': 98, 'fresh_tank_1_pc': 100, 'fresh_tank_2_pc': 100}
20250518T082327 | 52 | B0 03 00 40 00 26 DE 25 B0 03 00 26 00 03 00 03 00 03 00 01 00 01 00 01 00 01 00 01 00 00 00 00 00 00 00 00 00 00 00 00 00 00 00 00 00 64 00 64 00 64 D2 C9 | {}
20250518T082329 | 20 | B0 10 01 0E 00 02 00 01 52 AE B0 10 01 0E 00 02 00 01 52 AE | {}
20250518T082330 | 74 | B0 03 00 44 03 01 00 B0 00 00 00 03 00 05 03 E8 04 B0 04 88 06 40 00 1E 00 00 05 8C 05 46 05 8C 00 00 02 58 00 00 05 A0 01 E0 04 C4 05 DC 0D AC 0B B8 00 02 00 01 00 00 00 FF 00 00 00 FF 00 00 00 FF 00 00 00 64 00 FF 39 65 | {}
20250518T082330 | 94 | B0 03 00 58 05 6F 00 00 00 00 00 00 00 00 00 00 05 2A 00 84 05 2C FF 7C 00 62 11 6F 00 F0 00 00 00 01 05 23 00 00 08 A8 00 64 00 64 FF FF 00 00 00 00 00 FA 00 00 00 00 00 00 00 00 00 01 00 01 00 00 00 00 00 00 00 00 00 00 00 00 00 00 00 00 00 00 00 00 00 00 00 01 00 C0 FF FF 35 8F | {'solar_input_current': 0.0, 'solar_input_voltage_TBC': 13.91, 'aux_input_voltage_TBC': 0.0, 'aux_input_current': 0.0, 'output_voltage': 13.22, 'output_current': 1.32, 'battery_voltage': 13.24, 'battery_current': -1.32, 'battery_soc': 98, 'fresh_tank_1_pc': 100, 'fresh_tank_2_pc': 100}
20250518T082330 | 52 | B0 03 00 40 00 26 DE 25 B0 03 00 26 00 03 00 03 00 03 00 01 00 01 00 01 00 01 00 01 00 00 00 00 00 00 00 00 00 00 00 00 00 00 00 00 00 64 00 64 00 64 D2 C9 | {}
20250518T082332 | 74 | B0 03 00 44 03 01 00 B0 00 00 00 03 00 05 03 E8 04 B0 04 88 06 40 00 1E 00 00 05 8C 05 46 05 8C 00 00 02 58 00 00 05 A0 01 E0 04 C4 05 DC 0D AC 0B B8 00 02 00 01 00 00 00 FF 00 00 00 FF 00 00 00 FF 00 00 00 64 00 FF 39 65 | {}
20250518T082333 | 94 | B0 03 00 58 05 70 00 00 00 00 00 00 00 00 00 00 05 2A 00 82 05 2C FF 7E 00 62 11 B3 00 F0 00 00 00 02 05 23 00 00 08 A8 00 64 00 64 FF FF 00 00 00 00 00 F0 00 00 00 00 00 00 00 00 00 01 00 01 00 00 00 00 00 00 00 00 00 00 00 00 00 00 00 00 00 00 00 00 00 00 00 01 00 C0 FF FF 9F B7 | {'solar_input_current': 0.0, 'solar_input_voltage_TBC': 13.92, 'aux_input_voltage_TBC': 0.0, 'aux_input_current': 0.0, 'output_voltage': 13.22, 'output_current': 1.3, 'battery_voltage': 13.24, 'battery_current': -1.3, 'battery_soc': 98, 'fresh_tank_1_pc': 100, 'fresh_tank_2_pc': 100}
20250518T082333 | 52 | B0 03 00 40 00 26 DE 25 B0 03 00 26 00 03 00 03 00 03 00 01 00 01 00 01 00 01 00 01 00 00 00 00 00 00 00 00 00 00 00 00 00 00 00 00 00 64 00 64 00 64 D2 C9 | {}
20250518T082335 | 82 | B0 03 00 08 00 44 DF DA B0 03 00 44 03 01 00 B0 00 00 00 03 00 05 03 E8 04 B0 04 88 06 40 00 1E 00 00 05 8C 05 46 05 8C 00 00 02 58 00 00 05 A0 01 E0 04 C4 05 DC 0D AC 0B B8 00 02 00 01 00 00 00 FF 00 00 00 FF 00 00 00 FF 00 00 00 64 00 FF 39 65 | {}
20250518T082335 | 102 | B0 03 01 00 00 58 5E 2D B0 03 00 58 05 70 00 00 00 00 00 00 00 00 00 00 05 2A 00 80 05 2D FF 80 00 62 11 FA 00 F0 00 00 00 02 05 23 00 00 08 A8 00 64 00 64 FF FF 00 00 00 00 00 F0 00 00 00 00 00 00 00 00 00 01 00 01 00 00 00 00 00 00 00 00 00 00 00 00 00 00 00 00 00 00 00 00 00 00 00 01 00 C0 FF FF 64 2F | {'solar_input_current': 0.0, 'solar_input_voltage_TBC': 13.92, 'aux_input_voltage_TBC': 0.0, 'aux_input_current': 0.0, 'output_voltage': 13.22, 'output_current': 1.28, 'battery_voltage': 13.25, 'battery_current': -1.28, 'battery_soc': 98, 'fresh_tank_1_pc': 100, 'fresh_tank_2_pc': 100}
20250518T082336 | 52 | B0 03 00 40 00 26 DE 25 B0 03 00 26 00 03 00 03 00 03 00 01 00 01 00 01 00 01 00 01 00 00 00 00 00 00 00 00 00 00 00 00 00 00 00 00 00 64 00 64 00 64 D2 C9 | {}
20250518T082338 | 74 | B0 03 00 44 03 01 00 B0 00 00 00 03 00 05 03 E8 04 B0 04 88 06 40 00 1E 00 00 05 8C 05 46 05 8C 00 00 02 58 00 00 05 A0 01 E0 04 C4 05 DC 0D AC 0B B8 00 02 00 01 00 00 00 FF 00 00 00 FF 00 00 00 FF 00 00 00 64 00 FF 39 65 | {}
20250518T082338 | 94 | B0 03 00 58 08 D3 00 00 00 00 00 00 00 01 00 00 05 80 00 85 05 68 0B EC 00 62 00 03 00 F0 00 00 00 02 05 38 00 00 48 A8 00 64 00 64 FF FF 00 00 00 00 00 F0 00 00 00 00 00 00 00 00 00 01 00 01 00 00 00 00 00 00 00 00 00 00 00 00 00 00 00 00 00 00 00 00 00 00 00 01 00 C0 FF FF A9 C1 | {'solar_input_current': 0.0, 'solar_input_voltage_TBC': 22.59, 'aux_input_voltage_TBC': 0.01, 'aux_input_current': 0.0, 'output_voltage': 14.08, 'output_current': 1.33, 'battery_voltage': 13.84, 'battery_current': 30.52, 'battery_soc': 98, 'fresh_tank_1_pc': 100, 'fresh_tank_2_pc': 100}
20250518T082338 | 52 | B0 03 00 40 00 26 DE 25 B0 03 00 26 00 03 00 03 00 03 00 01 00 01 00 01 00 01 00 01 00 00 00 00 00 00 00 00 00 00 00 00 00 00 00 00 00 64 00 64 00 64 D2 C9 | {}
20250518T082340 | 74 | B0 03 00 44 03 01 00 B0 00 00 00 03 00 05 03 E8 04 B0 04 88 06 40 00 1E 00 00 05 8C 05 46 05 8C 00 00 02 58 00 00 05 A0 01 E0 04 C4 05 DC 0D AC 0B B8 00 02 00 01 00 00 00 FF 00 00 00 FF 00 00 00 FF 00 00 00 64 00 FF 39 65 | {}
20250518T082341 | 94 | B0 03 00 58 08 DF 00 00 00 00 00 00 00 01 00 00 05 83 00 97 05 6B 0B AD 00 62 00 03 00 F0 00 00 00 02 05 3B 00 00 48 A8 00 64 00 64 FF FF 00 00 00 00 00 FA 00 00 00 00 00 00 00 00 00 01 00 01 00 00 00 00 00 00 00 00 00 00 00 00 00 00 00 00 00 00 00 00 00 00 00 01 00 C0 FF FF 0E 69 | {'solar_input_current': 0.0, 'solar_input_voltage_TBC': 22.71, 'aux_input_voltage_TBC': 0.01, 'aux_input_current': 0.0, 'output_voltage': 14.11, 'output_current': 1.51, 'battery_voltage': 13.87, 'battery_current': 29.89, 'battery_soc': 98, 'fresh_tank_1_pc': 100, 'fresh_tank_2_pc': 100}
20250518T082341 | 52 | B0 03 00 40 00 26 DE 25 B0 03 00 26 00 03 00 03 00 03 00 01 00 01 00 01 00 01 00 01 00 00 00 00 00 00 00 00 00 00 00 00 00 00 00 00 00 64 00 64 00 64 D2 C9 | {}
20250518T082343 | 74 | B0 03 00 44 03 01 00 B0 00 00 00 03 00 05 03 E8 04 B0 04 88 06 40 00 1E 00 00 05 8C 05 46 05 8C 00 00 02 58 00 00 05 A0 01 E0 04 C4 05 DC 0D AC 0B B8 00 02 00 01 00 00 00 FF 00 00 00 FF 00 00 00 FF 00 00 00 64 00 FF 39 65 | {}
20250518T082344 | 94 | B0 03 00 58 08 E2 00 00 00 00 00 00 00 01 00 00 05 86 00 9C 05 6D 0B A9 00 62 00 03 00 F0 00 00 00 02 05 3E 00 00 48 A8 00 64 00 64 FF FF 00 00 00 00 00 FA 00 00 00 00 00 00 00 00 00 01 00 01 00 00 00 00 00 00 00 00 00 00 00 00 00 00 00 00 00 00 00 00 00 00 00 01 00 C0 FF FF A0 2D | {'solar_input_current': 0.0, 'solar_input_voltage_TBC': 22.74, 'aux_input_voltage_TBC': 0.01, 'aux_input_current': 0.0, 'output_voltage': 14.14, 'output_current': 1.56, 'battery_voltage': 13.89, 'battery_current': 29.85, 'battery_soc': 98, 'fresh_tank_1_pc': 100, 'fresh_tank_2_pc': 100}
20250518T082344 | 52 | B0 03 00 40 00 26 DE 25 B0 03 00 26 00 03 00 03 00 03 00 01 00 01 00 01 00 01 00 01 00 00 00 00 00 00 00 00 00 00 00 00 00 00 00 00 00 64 00 64 00 64 D2 C9 | {}
20250518T082346 | 74 | B0 03 00 44 03 01 00 B0 00 00 00 03 00 05 03 E8 04 B0 04 88 06 40 00 1E 00 00 05 8C 05 46 05 8C 00 00 02 58 00 00 05 A0 01 E0 04 C4 05 DC 0D AC 0B B8 00 02 00 01 00 00 00 FF 00 00 00 FF 00 00 00 FF 00 00 00 64 00 FF 39 65 | {}
20250518T082346 | 94 | B0 03 00 58 08 DF 00 00 00 00 00 00 00 01 00 00 05 88 00 9F 05 6F 0B AC 00 62 00 03 00 F0 00 00 00 02 05 3E 00 00 48 A8 00 64 00 64 FF FF 00 00 00 00 00 FA 00 00 00 00 00 00 00 00 00 01 00 01 00 00 00 00 00 00 00 00 00 00 00 00 00 00 00 00 00 00 00 00 00 00 00 01 00 C0 FF FF A5 EC | {'solar_input_current': 0.0, 'solar_input_voltage_TBC': 22.71, 'aux_input_voltage_TBC': 0.01, 'aux_input_current': 0.0, 'output_voltage': 14.16, 'output_current': 1.59, 'battery_voltage': 13.91, 'battery_current': 29.88, 'battery_soc': 98, 'fresh_tank_1_pc': 100, 'fresh_tank_2_pc': 100}
20250518T082347 | 52 | B0 03 00 40 00 26 DE 25 B0 03 00 26 00 03 00 03 00 03 00 01 00 01 00 01 00 01 00 01 00 00 00 00 00 00 00 00 00 00 00 00 00 00 00 00 00 64 00 64 00 64 D2 C9 | {}
20250518T082349 | 74 | B0 03 00 44 03 01 00 B0 00 00 00 03 00 05 03 E8 04 B0 04 88 06 40 00 1E 00 00 05 8C 05 46 05 8C 00 00 02 58 00 00 05 A0 01 E0 04 C4 05 DC 0D AC 0B B8 00 02 00 01 00 00 00 FF 00 00 00 FF 00 00 00 FF 00 00 00 64 00 FF 39 65 | {}
20250518T082349 | 94 | B0 03 00 58 08 D6 00 00 00 00 00 00 00 01 00 00 05 8B 00 A2 05 71 0B AC 00 62 00 03 00 E6 00 96 00 02 05 41 00 00 48 A8 00 64 00 64 FF FF 00 00 00 00 00 FA 00 00 00 00 00 00 00 00 00 01 00 01 00 00 00 00 00 00 00 00 00 00 00 00 00 00 00 00 00 00 00 00 00 00 00 01 00 C0 FF FF 7F 04 | {'solar_input_current': 0.0, 'solar_input_voltage_TBC': 22.62, 'aux_input_voltage_TBC': 0.01, 'aux_input_current': 0.0, 'output_voltage': 14.19, 'output_current': 1.62, 'battery_voltage': 13.93, 'battery_current': 29.88, 'battery_soc': 98, 'fresh_tank_1_pc': 100, 'fresh_tank_2_pc': 100}
20250518T082349 | 52 | B0 03 00 40 00 26 DE 25 B0 03 00 26 00 03 00 03 00 03 00 01 00 01 00 01 00 01 00 01 00 00 00 00 00 00 00 00 00 00 00 00 00 00 00 00 00 64 00 64 00 64 D2 C9 | {}
20250518T082351 | 74 | B0 03 00 44 03 01 00 B0 00 00 00 03 00 05 03 E8 04 B0 04 88 06 40 00 1E 00 00 05 8C 05 46 05 8C 00 00 02 58 00 00 05 A0 01 E0 04 C4 05 DC 0D AC 0B B8 00 02 00 01 00 00 00 FF 00 00 00 FF 00 00 00 FF 00 00 00 64 00 FF 39 65 | {}
20250518T082352 | 94 | B0 03 00 58 08 FA 00 00 00 00 00 00 00 00 00 00 05 8D 00 97 05 4E 03 AD 00 62 00 0A 00 E6 00 96 00 02 05 31 00 00 48 A8 00 64 00 64 FF FF 00 00 00 00 00 FA 00 00 00 00 00 00 00 00 00 01 00 01 00 00 00 00 00 00 00 00 00 00 00 00 00 00 00 00 00 00 00 00 00 00 00 01 00 C0 FF FF 8B 2F | {'solar_input_current': 0.0, 'solar_input_voltage_TBC': 22.98, 'aux_input_voltage_TBC': 0.0, 'aux_input_current': 0.0, 'output_voltage': 14.21, 'output_current': 1.51, 'battery_voltage': 13.58, 'battery_current': 9.41, 'battery_soc': 98, 'fresh_tank_1_pc': 100, 'fresh_tank_2_pc': 100}
20250518T082352 | 52 | B0 03 00 40 00 26 DE 25 B0 03 00 26 00 03 00 03 00 03 00 01 00 01 00 01 00 01 00 01 00 00 00 00 00 00 00 00 00 00 00 00 00 00 00 00 00 64 00 64 00 64 D2 C9 | {}
20250518T082354 | 74 | B0 03 00 44 03 01 00 B0 00 00 00 03 00 05 03 E8 04 B0 04 88 06 40 00 1E 00 00 05 8C 05 46 05 8C 00 00 02 58 00 00 05 A0 01 E0 04 C4 05 DC 0D AC 0B B8 00 02 00 01 00 00 00 FF 00 00 00 FF 00 00 00 FF 00 00 00 64 00 FF 39 65 | {}
20250518T082354 | 94 | B0 03 00 58 07 B3 00 50 00 00 00 00 00 00 00 00 05 36 00 A3 05 38 FF AD 00 62 27 0F 00 E6 00 96 00 02 05 2E 00 00 08 A8 00 64 00 64 FF FF 00 00 00 00 00 FA 00 00 00 00 00 00 00 00 00 01 00 01 00 00 00 00 00 00 00 00 00 00 00 00 00 00 00 00 00 00 00 00 00 00 00 01 00 C0 FF FF BE 09 | {'solar_input_current': 0.8, 'solar_input_voltage_TBC': 19.71, 'aux_input_voltage_TBC': 0.0, 'aux_input_current': 0.0, 'output_voltage': 13.34, 'output_current': 1.63, 'battery_voltage': 13.36, 'battery_current': -0.83, 'battery_soc': 98, 'fresh_tank_1_pc': 100, 'fresh_tank_2_pc': 100}
20250518T082355 | 52 | B0 03 00 40 00 26 DE 25 B0 03 00 26 00 03 00 03 00 03 00 01 00 01 00 01 00 01 00 01 00 00 00 00 00 00 00 00 00 00 00 00 00 00 00 00 00 64 00 64 00 64 D2 C9 | {}
20250518T082357 | 74 | B0 03 00 44 03 01 00 B0 00 00 00 03 00 05 03 E8 04 B0 04 88 06 40 00 1E 00 00 05 8C 05 46 05 8C 00 00 02 58 00 00 05 A0 01 E0 04 C4 05 DC 0D AC 0B B8 00 02 00 01 00 00 00 FF 00 00 00 FF 00 00 00 FF 00 00 00 64 00 FF 39 65 | {}
20250518T082357 | 94 | B0 03 00 58 05 E7 00 00 00 00 00 00 00 00 00 00 05 34 00 80 05 36 FF 8C 00 62 13 DC 00 F0 01 0E 00 02 05 2C 00 00 08 A8 00 64 00 64 FF FF 00 00 00 00 00 FA 00 00 00 00 00 00 00 00 00 01 00 01 00 00 00 00 00 00 00 00 00 00 00 00 00 00 00 00 00 00 00 00 00 00 00 01 00 C0 FF FF BD F8 | {'solar_input_current': 0.0, 'solar_input_voltage_TBC': 15.11, 'aux_input_voltage_TBC': 0.0, 'aux_input_current': 0.0, 'output_voltage': 13.32, 'output_current': 1.28, 'battery_voltage': 13.34, 'battery_current': -1.16, 'battery_soc': 98, 'fresh_tank_1_pc': 100, 'fresh_tank_2_pc': 100}
20250518T082357 | 52 | B0 03 00 40 00 26 DE 25 B0 03 00 26 00 03 00 03 00 03 00 01 00 01 00 01 00 01 00 01 00 00 00 00 00 00 00 00 00 00 00 00 00 00 00 00 00 64 00 64 00 64 D2 C9 | {}
20250518T082359 | 20 | B0 10 01 0E 00 02 00 01 52 AE B0 10 01 0E 00 02 00 01 52 AE | {}
20250518T082400 | 82 | B0 03 00 08 00 44 DF DA B0 03 00 44 03 01 00 B0 00 00 00 03 00 05 03 E8 04 B0 04 88 06 40 00 1E 00 00 05 8C 05 46 05 8C 00 00 02 58 00 00 05 A0 01 E0 04 C4 05 DC 0D AC 0B B8 00 02 00 01 00 00 00 FF 00 00 00 FF 00 00 00 FF 00 00 00 64 00 FF 39 65 | {}
20250518T082400 | 102 | B0 03 01 00 00 58 5E 2D B0 03 00 58 05 78 00 00 00 00 00 00 00 00 00 00 05 33 00 81 05 35 FF 7F 00 62 11 DC 00 F0 00 00 00 01 05 2B 00 00 08 A8 00 64 00 64 FF FF 00 00 00 00 00 FA 00 00 00 00 00 00 00 00 00 01 00 01 00 00 00 00 00 00 00 00 00 00 00 00 00 00 00 00 00 00 00 00 00 00 00 01 00 C0 FF FF 70 B7 | {'solar_input_current': 0.0, 'solar_input_voltage_TBC': 14.0, 'aux_input_voltage_TBC': 0.0, 'aux_input_current': 0.0, 'output_voltage': 13.31, 'output_current': 1.29, 'battery_voltage': 13.33, 'battery_current': -1.29, 'battery_soc': 98, 'fresh_tank_1_pc': 100, 'fresh_tank_2_pc': 100}
20250518T082400 | 20 | B0 10 01 1D 00 02 00 01 D7 6D B0 10 01 1D 00 02 00 01 D7 6D | {}
20250518T082401 | 74 | B0 03 00 44 03 01 00 B0 00 00 00 03 00 05 03 E8 04 B0 04 88 06 40 00 1E 00 00 05 8C 05 46 05 8C 00 00 02 58 00 00 05 A0 01 E0 04 C4 05 DC 0D AC 0B B8 00 02 00 01 00 00 00 FF 00 00 00 FF 00 00 00 FF 00 00 00 64 00 FF 39 65 | {}
20250518T082401 | 94 | B0 03 00 58 05 76 00 00 00 00 00 00 00 00 00 00 05 32 00 87 05 34 FF 79 00 62 11 11 00 F0 00 00 00 01 05 2C 00 00 08 A8 00 64 00 64 FF FF 00 01 00 00 00 FA 00 00 00 00 00 00 00 00 00 01 00 01 00 01 00 00 00 00 00 00 00 00 00 00 00 00 00 00 00 00 00 00 00 00 00 01 00 C0 FF FF 6A F6 | {'solar_input_current': 0.0, 'solar_input_voltage_TBC': 13.98, 'aux_input_voltage_TBC': 0.0, 'aux_input_current': 0.0, 'output_voltage': 13.3, 'output_current': 1.35, 'battery_voltage': 13.32, 'battery_current': -1.35, 'battery_soc': 98, 'fresh_tank_1_pc': 100, 'fresh_tank_2_pc': 100}
20250518T082402 | 52 | B0 03 00 40 00 26 DE 25 B0 03 00 26 00 03 00 03 00 03 00 01 00 01 00 01 00 01 00 01 00 00 00 00 00 00 00 00 00 00 00 00 00 00 00 00 00 64 00 64 00 64 D2 C9 | {}
20250518T082404 | 74 | B0 03 00 44 03 01 00 B0 00 00 00 03 00 05 03 E8 04 B0 04 88 06 40 00 1E 00 00 05 8C 05 46 05 8C 00 00 02 58 00 00 05 A0 01 E0 04 C4 05 DC 0D AC 0B B8 00 02 00 01 00 00 00 FF 00 00 00 FF 00 00 00 FF 00 00 00 64 00 FF 39 65 | {}
20250518T082404 | 94 | B0 03 00 58 05 76 00 00 00 00 00 00 00 00 00 00 05 31 00 88 05 33 FF 78 00 62 10 F0 00 F0 00 00 00 02 05 2D 00 00 08 A8 00 64 00 64 FF FF 00 01 00 00 00 FA 00 00 00 00 00 00 00 00 00 01 00 01 00 01 00 00 00 00 00 00 00 00 00 00 00 00 00 00 00 00 00 00 00 00 00 01 00 C0 FF FF F8 FE | {'solar_input_current': 0.0, 'solar_input_voltage_TBC': 13.98, 'aux_input_voltage_TBC': 0.0, 'aux_input_current': 0.0, 'output_voltage': 13.29, 'output_current': 1.36, 'battery_voltage': 13.31, 'battery_current': -1.36, 'battery_soc': 98, 'fresh_tank_1_pc': 100, 'fresh_tank_2_pc': 100}
20250518T082404 | 52 | B0 03 00 40 00 26 DE 25 B0 03 00 26 00 03 00 03 00 03 00 01 00 01 00 01 00 01 00 01 00 00 00 00 00 00 00 00 00 00 00 00 00 00 00 00 00 64 00 64 00 64 D2 C9 | {}
20250518T082406 | 20 | B0 10 01 1D 00 02 00 00 16 AD B0 10 01 1D 00 02 00 00 16 AD | {}
20250518T082406 | 74 | B0 03 00 44 03 01 00 B0 00 00 00 03 00 05 03 E8 04 B0 04 88 06 40 00 1E 00 00 05 8C 05 46 05 8C 00 00 02 58 00 00 05 A0 01 E0 04 C4 05 DC 0D AC 0B B8 00 02 00 01 00 00 00 FF 00 00 00 FF 00 00 00 FF 00 00 00 64 00 FF 39 65 | {}
20250518T082407 | 94 | B0 03 00 58 05 77 00 00 00 00 00 00 00 00 00 00 05 31 00 84 05 33 FF 7C 00 62 11 74 00 F0 00 00 00 02 05 2B 00 00 08 A8 00 64 00 64 FF FF 00 00 00 00 00 FA 00 00 00 00 00 00 00 00 00 01 00 01 00 00 00 00 00 00 00 00 00 00 00 00 00 00 00 00 00 00 00 00 00 00 00 01 00 C0 FF FF 63 E3 | {'solar_input_current': 0.0, 'solar_input_voltage_TBC': 13.99, 'aux_input_voltage_TBC': 0.0, 'aux_input_current': 0.0, 'output_voltage': 13.29, 'output_current': 1.32, 'battery_voltage': 13.31, 'battery_current': -1.32, 'battery_soc': 98, 'fresh_tank_1_pc': 100, 'fresh_tank_2_pc': 100}
20250518T082407 | 52 | B0 03 00 40 00 26 DE 25 B0 03 00 26 00 03 00 03 00 03 00 01 00 01 00 01 00 01 00 01 00 00 00 00 00 00 00 00 00 00 00 00 00 00 00 00 00 64 00 64 00 64 D2 C9 | {}
20250518T082409 | 74 | B0 03 00 44 03 01 00 B0 00 00 00 03 00 05 03 E8 04 B0 04 88 06 40 00 1E 00 00 05 8C 05 46 05 8C 00 00 02 58 00 00 05 A0 01 E0 04 C4 05 DC 0D AC 0B B8 00 02 00 01 00 00 00 FF 00 00 00 FF 00 00 00 FF 00 00 00 64 00 FF 39 65 | {}
20250518T082409 | 102 | B0 03 01 00 00 58 5E 2D B0 03 00 58 05 76 00 00 00 00 00 00 00 00 00 00 05 31 00 82 05 33 FF 7E 00 62 11 B8 00 F0 00 00 00 02 05 29 00 00 08 A8 00 64 00 64 FF FF 00 00 00 00 00 FA 00 00 00 00 00 00 00 00 00 01 00 01 00 00 00 00 00 00 00 00 00 00 00 00 00 00 00 00 00 00 00 00 00 00 00 01 00 C0 FF FF 93 77 | {'solar_input_current': 0.0, 'solar_input_voltage_TBC': 13.98, 'aux_input_voltage_TBC': 0.0, 'aux_input_current': 0.0, 'output_voltage': 13.29, 'output_current': 1.3, 'battery_voltage': 13.31, 'battery_current': -1.3, 'battery_soc': 98, 'fresh_tank_1_pc': 100, 'fresh_tank_2_pc': 100}
20250518T082410 | 52 | B0 03 00 40 00 26 DE 25 B0 03 00 26 00 03 00 03 00 03 00 01 00 01 00 01 00 01 00 01 00 00 00 00 00 00 00 00 00 00 00 00 00 00 00 00 00 64 00 64 00 64 D2 C9 | {}
20250518T082410 | 20 | B0 10 01 1E 00 02 00 01 93 6D B0 10 01 1E 00 02 00 01 93 6D | {}
20250518T082411 | 74 | B0 03 00 44 03 01 00 B0 00 00 00 03 00 05 03 E8 04 B0 04 88 06 40 00 1E 00 00 05 8C 05 46 05 8C 00 00 02 58 00 00 05 A0 01 E0 04 C4 05 DC 0D AC 0B B8 00 02 00 01 00 00 00 FF 00 00 00 FF 00 00 00 FF 00 00 00 64 00 FF 39 65 | {}
20250518T082411 | 94 | B0 03 00 58 05 75 00 00 00 00 00 00 00 00 00 00 05 2F 00 9D 05 32 FF 5B 00 62 0D F6 00 F0 00 00 00 02 05 28 00 00 08 A8 00 64 00 64 FF FF 00 00 00 00 00 FA 00 00 00 00 00 00 00 00 00 01 00 01 00 00 00 01 00 00 00 00 00 00 00 00 00 00 00 00 00 00 00 00 00 00 00 01 00 C0 FF FF AD D3 | {'solar_input_current': 0.0, 'solar_input_voltage_TBC': 13.97, 'aux_input_voltage_TBC': 0.0, 'aux_input_current': 0.0, 'output_voltage': 13.27, 'output_current': 1.57, 'battery_voltage': 13.3, 'battery_current': -1.65, 'battery_soc': 98, 'fresh_tank_1_pc': 100, 'fresh_tank_2_pc': 100}
20250518T082412 | 52 | B0 03 00 40 00 26 DE 25 B0 03 00 26 00 03 00 03 00 03 00 01 00 01 00 01 00 01 00 01 00 00 00 00 00 00 00 00 00 00 00 00 00 00 00 00 00 64 00 64 00 64 D2 C9 | {}
20250518T082414 | 74 | B0 03 00 44 03 01 00 B0 00 00 00 03 00 05 03 E8 04 B0 04 88 06 40 00 1E 00 00 05 8C 05 46 05 8C 00 00 02 58 00 00 05 A0 01 E0 04 C4 05 DC 0D AC 0B B8 00 02 00 01 00 00 00 FF 00 00 00 FF 00 00 00 FF 00 00 00 64 00 FF 39 65 | {}
20250518T082414 | 102 | B0 03 01 00 00 58 5E 2D B0 03 00 58 05 73 00 00 00 00 00 00 00 00 00 00 05 2F 00 9F 05 31 FF 60 00 62 0E 66 00 F0 00 00 00 02 05 28 00 00 08 A8 00 64 00 64 FF FF 00 00 00 00 00 FA 00 00 00 00 00 00 00 00 00 01 00 01 00 00 00 01 00 00 00 00 00 00 00 00 00 00 00 00 00 00 00 00 00 00 00 01 00 C0 FF FF C6 14 | {'solar_input_current': 0.0, 'solar_input_voltage_TBC': 13.95, 'aux_input_voltage_TBC': 0.0, 'aux_input_current': 0.0, 'output_voltage': 13.27, 'output_current': 1.59, 'battery_voltage': 13.29, 'battery_current': -1.6, 'battery_soc': 98, 'fresh_tank_1_pc': 100, 'fresh_tank_2_pc': 100}
20250518T082414 | 52 | B0 03 00 40 00 26 DE 25 B0 03 00 26 00 03 00 03 00 03 00 01 00 01 00 01 00 01 00 01 00 00 00 00 00 00 00 00 00 00 00 00 00 00 00 00 00 64 00 64 00 64 D2 C9 | {}
20250518T082415 | 20 | B0 10 01 1E 00 02 00 00 52 AD B0 10 01 1E 00 02 00 00 52 AD | {}
20250518T082416 | 82 | B0 03 00 08 00 44 DF DA B0 03 00 44 03 01 00 B0 00 00 00 03 00 05 03 E8 04 B0 04 88 06 40 00 1E 00 00 05 8C 05 46 05 8C 00 00 02 58 00 00 05 A0 01 E0 04 C4 05 DC 0D AC 0B B8 00 02 00 01 00 00 00 FF 00 00 00 FF 00 00 00 FF 00 00 00 64 00 FF 39 65 | {}
20250518T082416 | 94 | B0 03 00 58 05 75 00 00 00 00 00 00 00 00 00 00 05 2F 00 8C 05 32 FF 74 00 62 10 74 00 F0 00 00 00 02 05 28 00 00 08 A8 00 64 00 64 FF FF 00 00 00 00 00 FA 00 00 00 00 00 00 00 00 00 01 00 01 00 00 00 00 00 00 00 00 00 00 00 00 00 00 00 00 00 00 00 00 00 00 00 01 00 C0 FF FF B8 AA | {'solar_input_current': 0.0, 'solar_input_voltage_TBC': 13.97, 'aux_input_voltage_TBC': 0.0, 'aux_input_current': 0.0, 'output_voltage': 13.27, 'output_current': 1.4, 'battery_voltage': 13.3, 'battery_current': -1.4, 'battery_soc': 98, 'fresh_tank_1_pc': 100, 'fresh_tank_2_pc': 100}
20250518T082417 | 52 | B0 03 00 40 00 26 DE 25 B0 03 00 26 00 03 00 03 00 03 00 01 00 01 00 01 00 01 00 01 00 00 00 00 00 00 00 00 00 00 00 00 00 00 00 00 00 64 00 64 00 64 D2 C9 | {}
20250518T082419 | 18 | B0 10 02 07 00 01 01 10 BF B0 10 02 07 00 01 01 10 BF | {}
20250518T082419 | 74 | B0 03 00 44 03 01 00 B0 00 00 00 03 00 05 03 E8 04 B0 04 88 06 40 00 1E 00 00 05 8C 05 46 05 8C 00 00 02 58 00 00 05 A0 01 E0 04 C4 05 DC 0D AC 0B B8 00 02 00 01 00 00 00 FF 00 00 00 FF 00 00 00 FF 00 00 00 64 00 FF 39 65 | {}
20250518T082420 | 94 | B0 03 00 58 05 75 00 00 00 00 00 00 00 00 00 00 05 30 00 88 05 32 FF 78 00 62 10 F0 00 F0 00 00 00 02 05 29 00 00 08 B8 00 64 00 64 FF FF 00 00 00 00 00 FA 00 00 00 00 00 00 00 00 00 01 00 01 00 00 00 00 00 00 00 00 00 00 00 00 00 00 00 00 00 00 00 00 00 00 00 09 00 C0 FF FF 99 3E | {'solar_input_current': 0.0, 'solar_input_voltage_TBC': 13.97, 'aux_input_voltage_TBC': 0.0, 'aux_input_current': 0.0, 'output_voltage': 13.28, 'output_current': 1.36, 'battery_voltage': 13.3, 'battery_current': -1.36, 'battery_soc': 98, 'fresh_tank_1_pc': 100, 'fresh_tank_2_pc': 100}
20250518T082420 | 52 | B0 03 00 40 00 26 DE 25 B0 03 00 26 00 03 00 03 00 03 00 01 00 01 00 01 00 01 00 01 00 00 00 00 00 00 00 00 00 00 00 00 00 00 00 00 00 64 00 64 00 64 D2 C9 | {}
20250518T082422 | 74 | B0 03 00 44 03 01 00 B0 00 00 00 03 00 05 03 E8 04 B0 04 88 06 40 00 1E 00 00 05 8C 05 46 05 8C 00 00 02 58 00 00 05 A0 01 E0 04 C4 05 DC 0D AC 0B B8 00 02 00 01 00 00 00 FF 00 00 00 FF 00 00 00 FF 00 00 00 64 00 FF 39 65 | {}
20250518T082422 | 94 | B0 03 00 58 05 74 00 00 00 00 00 00 00 00 00 00 05 2F 00 88 05 31 FF 78 00 62 10 F0 00 F0 00 00 00 02 05 29 00 00 08 B8 00 64 00 64 FF FF 00 00 00 00 00 FA 00 00 00 00 00 00 00 00 00 01 00 01 00 00 00 00 00 00 00 00 00 00 00 00 00 00 00 00 00 00 00 00 00 00 00 09 00 C0 FF FF 76 E7 | {'solar_input_current': 0.0, 'solar_input_voltage_TBC': 13.96, 'aux_input_voltage_TBC': 0.0, 'aux_input_current': 0.0, 'output_voltage': 13.27, 'output_current': 1.36, 'battery_voltage': 13.29, 'battery_current': -1.36, 'battery_soc': 98, 'fresh_tank_1_pc': 100, 'fresh_tank_2_pc': 100}
20250518T082423 | 52 | B0 03 00 40 00 26 DE 25 B0 03 00 26 00 03 00 03 00 03 00 01 00 01 00 01 00 01 00 01 00 00 00 00 00 00 00 00 00 00 00 00 00 00 00 00 00 64 00 64 00 64 D2 C9 | {}
20250518T082425 | 82 | B0 03 00 08 00 44 DF DA B0 03 00 44 03 01 00 B0 00 00 00 03 00 05 03 E8 04 B0 04 88 06 40 00 1E 00 00 05 8C 05 46 05 8C 00 00 02 58 00 00 05 A0 01 E0 04 C4 05 DC 0D AC 0B B8 00 02 00 01 00 00 00 FF 00 00 00 FF 00 00 00 FF 00 00 00 64 00 FF 39 65 | {}
20250518T082425 | 94 | B0 03 00 58 05 72 00 00 00 00 00 00 00 00 00 00 05 2F 00 8E 05 31 FF 72 00 62 10 39 00 F0 00 00 00 02 05 27 00 00 08 B8 00 64 00 64 FF FF 00 00 00 00 00 FA 00 00 00 00 00 00 00 00 00 01 00 01 00 00 00 00 00 00 00 00 00 00 00 00 00 00 00 00 00 00 00 00 00 00 00 09 00 C0 FF FF 02 F1 | {'solar_input_current': 0.0, 'solar_input_voltage_TBC': 13.94, 'aux_input_voltage_TBC': 0.0, 'aux_input_current': 0.0, 'output_voltage': 13.27, 'output_current': 1.42, 'battery_voltage': 13.29, 'battery_current': -1.42, 'battery_soc': 98, 'fresh_tank_1_pc': 100, 'fresh_tank_2_pc': 100}
20250518T082425 | 52 | B0 03 00 40 00 26 DE 25 B0 03 00 26 00 03 00 03 00 03 00 01 00 01 00 01 00 01 00 01 00 00 00 00 00 00 00 00 00 00 00 00 00 00 00 00 00 64 00 64 00 64 D2 C9 | {}
20250518T082426 | 18 | B0 10 02 07 00 01 00 D1 7F B0 10 02 07 00 01 00 D1 7F | {}
20250518T082427 | 82 | B0 03 00 08 00 44 DF DA B0 03 00 44 03 01 00 B0 00 00 00 03 00 05 03 E8 04 B0 04 88 06 40 00 1E 00 00 05 8C 05 46 05 8C 00 00 02 58 00 00 05 A0 01 E0 04 C4 05 DC 0D AC 0B B8 00 02 00 01 00 00 00 FF 00 00 00 FF 00 00 00 FF 00 00 00 64 00 FF 39 65 | {}
20250518T082427 | 94 | B0 03 00 58 05 72 00 00 00 00 00 00 00 00 00 00 05 2E 00 8E 05 30 FF 72 00 62 10 39 00 F0 00 00 00 02 05 26 00 00 08 A8 00 64 00 64 FF FF 00 00 00 00 00 FA 00 00 00 00 00 00 00 00 00 01 00 01 00 00 00 00 00 00 00 00 00 00 00 00 00 00 00 00 00 00 00 00 00 00 00 01 00 C0 FF FF 7D 2A | {'solar_input_current': 0.0, 'solar_input_voltage_TBC': 13.94, 'aux_input_voltage_TBC': 0.0, 'aux_input_current': 0.0, 'output_voltage': 13.26, 'output_current': 1.42, 'battery_voltage': 13.28, 'battery_current': -1.42, 'battery_soc': 98, 'fresh_tank_1_pc': 100, 'fresh_tank_2_pc': 100}
20250518T082427 | 52 | B0 03 00 40 00 26 DE 25 B0 03 00 26 00 03 00 03 00 03 00 01 00 01 00 01 00 01 00 01 00 00 00 00 00 00 00 00 00 00 00 00 00 00 00 00 00 64 00 64 00 64 D2 C9 | {}
20250518T082429 | 20 | B0 10 01 0E 00 02 00 01 52 AE B0 10 01 0E 00 02 00 01 52 AE | {}
20250518T082430 | 74 | B0 03 00 44 03 01 00 B0 00 00 00 03 00 05 03 E8 04 B0 04 88 06 40 00 1E 00 00 05 8C 05 46 05 8C 00 00 02 58 00 00 05 A0 01 E0 04 C4 05 DC 0D AC 0B B8 00 02 00 01 00 00 00 FF 00 00 00 FF 00 00 00 FF 00 00 00 64 00 FF 39 65 | {}
20250518T082430 | 94 | B0 03 00 58 08 44 00 00 00 00 00 00 00 00 00 00 05 2D 00 A6 05 30 FF 5C 00 62 0E 0C 00 F0 00 00 00 01 05 27 00 00 08 A8 00 64 00 64 FF FF 00 00 00 00 00 FA 00 00 00 00 00 00 00 00 00 01 00 01 00 00 00 00 00 00 00 00 00 00 00 00 00 00 00 00 00 00 00 00 00 00 00 01 00 C0 FF FF 0B D1 | {'solar_input_current': 0.0, 'solar_input_voltage_TBC': 21.16, 'aux_input_voltage_TBC': 0.0, 'aux_input_current': 0.0, 'output_voltage': 13.25, 'output_current': 1.66, 'battery_voltage': 13.28, 'battery_current': -1.64, 'battery_soc': 98, 'fresh_tank_1_pc': 100, 'fresh_tank_2_pc': 100}
20250518T082430 | 52 | B0 03 00 40 00 26 DE 25 B0 03 00 26 00 03 00 03 00 03 00 01 00 01 00 01 00 01 00 01 00 00 00 00 00 00 00 00 00 00 00 00 00 00 00 00 00 64 00 64 00 64 D2 C9 | {}
20250518T082431 | 18 | B0 10 02 04 00 01 01 10 FB B0 10 02 04 00 01 01 10 FB | {}
20250518T082431 | 82 | B0 03 00 08 00 44 DF DA B0 03 00 44 03 01 00 B0 00 00 00 03 00 05 03 E8 04 B0 04 88 06 40 00 1E 00 00 05 8C 05 46 05 8C 00 00 02 58 00 00 05 A0 01 E0 04 C4 05 DC 0D AC 0B B8 00 02 00 01 00 00 00 FF 00 00 00 FF 00 00 00 FF 00 00 00 64 00 FF 39 65 | {}
20250518T082432 | 94 | B0 03 00 58 07 3C 00 00 00 00 00 00 00 00 00 00 00 00 00 00 05 32 00 00 00 62 27 0F 00 F0 00 00 00 01 05 2A 00 00 08 88 00 64 00 64 FF FF 00 00 00 00 00 FA 00 00 00 00 00 00 00 00 00 00 00 00 00 00 00 00 00 00 00 00 00 00 00 00 00 00 00 00 00 00 00 00 00 00 00 01 00 C0 FF FF 21 C1 | {'solar_input_current': 0.0, 'solar_input_voltage_TBC': 18.52, 'aux_input_voltage_TBC': 0.0, 'aux_input_current': 0.0, 'output_voltage': 0.0, 'output_current': 0.0, 'battery_voltage': 13.3, 'battery_current': 0.0, 'battery_soc': 98, 'fresh_tank_1_pc': 100, 'fresh_tank_2_pc': 100}
20250518T082432 | 52 | B0 03 00 40 00 26 DE 25 B0 03 00 26 00 03 00 03 00 03 00 01 00 01 00 01 00 01 00 01 00 00 00 00 00 00 00 00 00 00 00 00 00 00 00 00 00 64 00 64 00 64 D2 C9 | {}
20250518T082434 | 74 | B0 03 00 44 03 01 00 B0 00 00 00 03 00 05 03 E8 04 B0 04 88 06 40 00 1E 00 00 05 8C 05 46 05 8C 00 00 02 58 00 00 05 A0 01 E0 04 C4 05 DC 0D AC 0B B8 00 02 00 01 00 00 00 FF 00 00 00 FF 00 00 00 FF 00 00 00 64 00 FF 39 65 | {}
20250518T082435 | 94 | B0 03 00 58 05 7A 00 00 00 00 00 00 00 00 00 00 00 00 00 00 05 33 00 00 00 62 03 56 00 F0 00 00 00 02 05 28 00 00 08 88 00 64 00 64 FF FF 00 00 00 00 00 FA 00 00 00 00 00 00 00 00 00 00 00 00 00 00 00 00 00 00 00 00 00 00 00 00 00 00 00 00 00 00 00 00 00 00 00 01 00 C0 FF FF 3D 33 | {'solar_input_current': 0.0, 'solar_input_voltage_TBC': 14.02, 'aux_input_voltage_TBC': 0.0, 'aux_input_current': 0.0, 'output_voltage': 0.0, 'output_current': 0.0, 'battery_voltage': 13.31, 'battery_current': 0.0, 'battery_soc': 98, 'fresh_tank_1_pc': 100, 'fresh_tank_2_pc': 100}
20250518T082435 | 44 | B0 03 00 26 00 03 00 03 00 03 00 01 00 01 00 01 00 01 00 01 00 00 00 00 00 00 00 00 00 00 00 00 00 00 00 00 00 64 00 64 00 64 D2 C9 | {'PMDCS_input_voltage': 0.01, 'PMDCS_output_voltage': 0.0, 'PMDCS_current': 0.0}
20250518T082437 | 74 | B0 03 00 44 03 01 00 B0 00 00 00 03 00 05 03 E8 04 B0 04 88 06 40 00 1E 00 00 05 8C 05 46 05 8C 00 00 02 58 00 00 05 A0 01 E0 04 C4 05 DC 0D AC 0B B8 00 02 00 01 00 00 00 FF 00 00 00 FF 00 00 00 FF 00 00 00 64 00 FF 39 65 | {}
20250518T082437 | 94 | B0 03 00 58 05 7A 00 00 00 00 00 00 00 00 00 00 00 00 00 00 05 33 00 00 00 62 02 DC 00 F0 00 00 00 02 05 2A 00 00 08 88 00 64 00 64 FF FF 00 00 00 00 00 FA 00 00 00 00 00 00 00 00 00 00 00 00 00 00 00 00 00 00 00 00 00 00 00 00 00 00 00 00 00 00 00 00 00 00 00 01 00 C0 FF FF 95 18 | {'solar_input_current': 0.0, 'solar_input_voltage_TBC': 14.02, 'aux_input_voltage_TBC': 0.0, 'aux_input_current': 0.0, 'output_voltage': 0.0, 'output_current': 0.0, 'battery_voltage': 13.31, 'battery_current': 0.0, 'battery_soc': 98, 'fresh_tank_1_pc': 100, 'fresh_tank_2_pc': 100}
20250518T082438 | 52 | B0 03 00 40 00 26 DE 25 B0 03 00 26 00 03 00 03 00 03 00 01 00 01 00 01 00 01 00 01 00 00 00 00 00 00 00 00 00 00 00 00 00 00 00 00 00 64 00 64 00 64 D2 C9 | {}
20250518T082438 | 18 | B0 10 02 04 00 01 00 D1 3B B0 10 02 04 00 01 00 D1 3B | {}
20250518T082439 | 74 | B0 03 00 44 03 01 00 B0 00 00 00 03 00 05 03 E8 04 B0 04 88 06 40 00 1E 00 00 05 8C 05 46 05 8C 00 00 02 58 00 00 05 A0 01 E0 04 C4 05 DC 0D AC 0B B8 00 02 00 01 00 00 00 FF 00 00 00 FF 00 00 00 FF 00 00 00 64 00 FF 39 65 | {}
20250518T082439 | 94 | B0 03 00 58 05 79 00 00 00 00 00 00 00 00 00 00 05 32 00 00 05 33 00 00 00 62 27 0F 00 F0 00 00 00 02 05 27 00 00 08 A8 00 64 00 64 FF FF 00 00 00 00 00 FA 00 00 00 00 00 00 00 00 00 00 00 00 00 00 00 00 00 00 00 00 00 00 00 00 00 00 00 00 00 00 00 00 00 00 00 01 00 C0 FF FF BA 3C | {'solar_input_current': 0.0, 'solar_input_voltage_TBC': 14.01, 'aux_input_voltage_TBC': 0.0, 'aux_input_current': 0.0, 'output_voltage': 13.3, 'output_current': 0.0, 'battery_voltage': 13.31, 'battery_current': 0.0, 'battery_soc': 98, 'fresh_tank_1_pc': 100, 'fresh_tank_2_pc': 100}
20250518T082440 | 52 | B0 03 00 40 00 26 DE 25 B0 03 00 26 00 03 00 03 00 03 00 01 00 01 00 01 00 01 00 01 00 00 00 00 00 00 00 00 00 00 00 00 00 00 00 00 00 64 00 64 00 64 D2 C9 | {}
20250518T082442 | 74 | B0 03 00 44 03 01 00 B0 00 00 00 03 00 05 03 E8 04 B0 04 88 06 40 00 1E 00 00 05 8C 05 46 05 8C 00 00 02 58 00 00 05 A0 01 E0 04 C4 05 DC 0D AC 0B B8 00 02 00 01 00 00 00 FF 00 00 00 FF 00 00 00 FF 00 00 00 64 00 FF 39 65 | {}
20250518T082442 | 94 | B0 03 00 58 05 73 00 00 00 00 00 00 00 00 00 00 05 2E 00 88 05 30 FF 78 00 62 10 F0 00 F0 00 00 00 02 05 28 00 00 08 A8 00 64 00 64 FF FF 00 00 00 00 00 FA 00 00 00 00 00 00 00 00 00 01 00 01 00 00 00 00 00 00 00 00 00 00 00 00 00 00 00 00 00 00 00 00 00 00 00 01 00 C0 FF FF 06 73 | {'solar_input_current': 0.0, 'solar_input_voltage_TBC': 13.95, 'aux_input_voltage_TBC': 0.0, 'aux_input_current': 0.0, 'output_voltage': 13.26, 'output_current': 1.36, 'battery_voltage': 13.28, 'battery_current': -1.36, 'battery_soc': 98, 'fresh_tank_1_pc': 100, 'fresh_tank_2_pc': 100}
20250518T082442 | 52 | B0 03 00 40 00 26 DE 25 B0 03 00 26 00 03 00 03 00 03 00 01 00 01 00 01 00 01 00 01 00 00 00 00 00 00 00 00 00 00 00 00 00 00 00 00 00 64 00 64 00 64 D2 C9 | {}
20250518T082444 | 74 | B0 03 00 44 03 01 00 B0 00 00 00 03 00 05 03 E8 04 B0 04 88 06 40 00 1E 00 00 05 8C 05 46 05 8C 00 00 02 58 00 00 05 A0 01 E0 04 C4 05 DC 0D AC 0B B8 00 02 00 01 00 00 00 FF 00 00 00 FF 00 00 00 FF 00 00 00 64 00 FF 39 65 | {}
20250518T082445 | 94 | B0 03 00 58 05 73 00 00 00 00 00 00 00 00 00 00 05 2E 00 88 05 30 FF 78 00 62 10 F0 00 F0 00 00 00 02 05 26 00 00 08 A8 00 64 00 64 FF FF 00 00 00 00 00 FA 00 00 00 00 00 00 00 00 00 01 00 01 00 00 00 00 00 00 00 00 00 00 00 00 00 00 00 00 00 00 00 00 00 00 00 01 00 C0 FF FF 79 20 | {'solar_input_current': 0.0, 'solar_input_voltage_TBC': 13.95, 'aux_input_voltage_TBC': 0.0, 'aux_input_current': 0.0, 'output_voltage': 13.26, 'output_current': 1.36, 'battery_voltage': 13.28, 'battery_current': -1.36, 'battery_soc': 98, 'fresh_tank_1_pc': 100, 'fresh_tank_2_pc': 100}
20250518T082445 | 52 | B0 03 00 40 00 26 DE 25 B0 03 00 26 00 03 00 03 00 03 00 01 00 01 00 01 00 01 00 01 00 00 00 00 00 00 00 00 00 00 00 00 00 00 00 00 00 64 00 64 00 64 D2 C9 | {}
20250518T082447 | 74 | B0 03 00 44 03 01 00 B0 00 00 00 03 00 05 03 E8 04 B0 04 88 06 40 00 1E 00 00 05 8C 05 46 05 8C 00 00 02 58 00 00 05 A0 01 E0 04 C4 05 DC 0D AC 0B B8 00 02 00 01 00 00 00 FF 00 00 00 FF 00 00 00 FF 00 00 00 64 00 FF 39 65 | {}
20250518T082447 | 94 | B0 03 00 58 05 73 00 00 00 00 00 00 00 00 00 00 05 2E 00 87 05 30 FF 79 00 62 11 10 00 F0 00 00 00 02 05 26 00 00 08 A8 00 64 00 64 FF FF 00 00 00 00 00 FA 00 00 00 00 00 00 00 00 00 01 00 01 00 00 00 00 00 00 00 00 00 00 00 00 00 00 00 00 00 00 00 00 00 00 00 01 00 C0 FF FF 4E 0B | {'solar_input_current': 0.0, 'solar_input_voltage_TBC': 13.95, 'aux_input_voltage_TBC': 0.0, 'aux_input_current': 0.0, 'output_voltage': 13.26, 'output_current': 1.35, 'battery_voltage': 13.28, 'battery_current': -1.35, 'battery_soc': 98, 'fresh_tank_1_pc': 100, 'fresh_tank_2_pc': 100}
20250518T082448 | 52 | B0 03 00 40 00 26 DE 25 B0 03 00 26 00 03 00 03 00 03 00 01 00 01 00 01 00 01 00 01 00 00 00 00 00 00 00 00 00 00 00 00 00 00 00 00 00 64 00 64 00 64 D2 C9 | {}
20250518T082450 | 74 | B0 03 00 44 03 01 00 B0 00 00 00 03 00 05 03 E8 04 B0 04 88 06 40 00 1E 00 00 05 8C 05 46 05 8C 00 00 02 58 00 00 05 A0 01 E0 04 C4 05 DC 0D AC 0B B8 00 02 00 01 00 00 00 FF 00 00 00 FF 00 00 00 FF 00 00 00 64 00 FF 39 65 | {}
20250518T082450 | 94 | B0 03 00 58 05 73 00 00 00 00 00 00 00 00 00 00 05 2E 00 84 05 30 FF 7C 00 62 11 73 00 F0 00 00 00 02 05 26 00 00 08 A8 00 64 00 64 FF FF 00 00 00 00 00 FA 00 00 00 00 00 00 00 00 00 01 00 01 00 00 00 00 00 00 00 00 00 00 00 00 00 00 00 00 00 00 00 00 00 00 00 01 00 C0 FF FF F0 97 | {'solar_input_current': 0.0, 'solar_input_voltage_TBC': 13.95, 'aux_input_voltage_TBC': 0.0, 'aux_input_current': 0.0, 'output_voltage': 13.26, 'output_current': 1.32, 'battery_voltage': 13.28, 'battery_current': -1.32, 'battery_soc': 98, 'fresh_tank_1_pc': 100, 'fresh_tank_2_pc': 100}
20250518T082451 | 52 | B0 03 00 40 00 26 DE 25 B0 03 00 26 00 03 00 03 00 03 00 01 00 01 00 01 00 01 00 01 00 00 00 00 00 00 00 00 00 00 00 00 00 00 00 00 00 64 00 64 00 64 D2 C9 | {}
20250518T082452 | 74 | B0 03 00 44 03 01 00 B0 00 00 00 03 00 05 03 E8 04 B0 04 88 06 40 00 1E 00 00 05 8C 05 46 05 8C 00 00 02 58 00 00 05 A0 01 E0 04 C4 05 DC 0D AC 0B B8 00 02 00 01 00 00 00 FF 00 00 00 FF 00 00 00 FF 00 00 00 64 00 FF 39 65 | {}
20250518T082453 | 102 | B0 03 01 00 00 58 5E 2D B0 03 00 58 05 73 00 00 00 00 00 00 00 00 00 00 05 2E 00 82 05 30 FF 7E 00 62 11 B8 00 F0 00 00 00 02 05 26 00 00 08 A8 00 64 00 64 FF FF 00 00 00 00 00 FA 00 00 00 00 00 00 00 00 00 01 00 01 00 00 00 00 00 00 00 00 00 00 00 00 00 00 00 00 00 00 00 00 00 00 00 01 00 C0 FF FF 82 37 | {'solar_input_current': 0.0, 'solar_input_voltage_TBC': 13.95, 'aux_input_voltage_TBC': 0.0, 'aux_input_current': 0.0, 'output_voltage': 13.26, 'output_current': 1.3, 'battery_voltage': 13.28, 'battery_current': -1.3, 'battery_soc': 98, 'fresh_tank_1_pc': 100, 'fresh_tank_2_pc': 100}
20250518T082453 | 52 | B0 03 00 40 00 26 DE 25 B0 03 00 26 00 03 00 03 00 03 00 01 00 01 00 01 00 01 00 01 00 00 00 00 00 00 00 00 00 00 00 00 00 00 00 00 00 64 00 64 00 64 D2 C9 | {}
20250518T082455 | 74 | B0 03 00 44 03 01 00 B0 00 00 00 03 00 05 03 E8 04 B0 04 88 06 40 00 1E 00 00 05 8C 05 46 05 8C 00 00 02 58 00 00 05 A0 01 E0 04 C4 05 DC 0D AC 0B B8 00 02 00 01 00 00 00 FF 00 00 00 FF 00 00 00 FF 00 00 00 64 00 FF 39 65 | {}
20250518T082456 | 102 | B0 03 01 00 00 58 5E 2D B0 03 00 58 05 73 00 00 00 00 00 00 00 00 00 00 05 2E 00 80 05 30 FF 80 00 62 11 FF 00 F0 00 00 00 02 05 26 00 00 08 A8 00 64 00 64 FF FF 00 00 00 00 00 FA 00 00 00 00 00 00 00 00 00 01 00 01 00 00 00 00 00 00 00 00 00 00 00 00 00 00 00 00 00 00 00 00 00 00 00 01 00 C0 FF FF 99 F2 | {'solar_input_current': 0.0, 'solar_input_voltage_TBC': 13.95, 'aux_input_voltage_TBC': 0.0, 'aux_input_current': 0.0, 'output_voltage': 13.26, 'output_current': 1.28, 'battery_voltage': 13.28, 'battery_current': -1.28, 'battery_soc': 98, 'fresh_tank_1_pc': 100, 'fresh_tank_2_pc': 100}
20250518T082456 | 52 | B0 03 00 40 00 26 DE 25 B0 03 00 26 00 03 00 03 00 03 00 01 00 01 00 01 00 01 00 01 00 00 00 00 00 00 00 00 00 00 00 00 00 00 00 00 00 64 00 64 00 64 D2 C9 | {}
20250518T082458 | 74 | B0 03 00 44 03 01 00 B0 00 00 00 03 00 05 03 E8 04 B0 04 88 06 40 00 1E 00 00 05 8C 05 46 05 8C 00 00 02 58 00 00 05 A0 01 E0 04 C4 05 DC 0D AC 0B B8 00 02 00 01 00 00 00 FF 00 00 00 FF 00 00 00 FF 00 00 00 64 00 FF 39 65 | {}
20250518T082458 | 94 | B0 03 00 58 05 73 00 00 00 00 00 00 00 00 00 00 05 2E 00 7E 05 30 FF 82 00 62 12 48 00 F0 00 00 00 02 05 26 00 00 08 A8 00 64 00 64 FF FF 00 00 00 00 00 FA 00 00 00 00 00 00 00 00 00 01 00 01 00 00 00 00 00 00 00 00 00 00 00 00 00 00 00 00 00 00 00 00 00 00 00 01 00 C0 FF FF E6 2E | {'solar_input_current': 0.0, 'solar_input_voltage_TBC': 13.95, 'aux_input_voltage_TBC': 0.0, 'aux_input_current': 0.0, 'output_voltage': 13.26, 'output_current': 1.26, 'battery_voltage': 13.28, 'battery_current': -1.26, 'battery_soc': 98, 'fresh_tank_1_pc': 100, 'fresh_tank_2_pc': 100}
20250518T082459 | 52 | B0 03 00 40 00 26 DE 25 B0 03 00 26 00 03 00 03 00 03 00 01 00 01 00 01 00 01 00 01 00 00 00 00 00 00 00 00 00 00 00 00 00 00 00 00 00 64 00 64 00 64 D2 C9 | {}
20250518T082459 | 54 | C0 03 01 00 00 1E D4 EF C0 03 00 1E 00 00 00 00 00 00 00 02 00 00 00 00 00 00 00 00 00 00 00 00 00 00 00 00 00 00 00 00 00 00 E0 48 C0 FF 00 03 00 02 00 01 67 54 | {}
20250518T082459 | 72 | C0 FF 80 03 00 40 00 00 00 00 00 00 00 00 00 00 00 00 00 00 00 00 00 00 00 00 00 00 00 00 00 00 00 00 00 00 00 0F 00 4B 61 70 70 61 32 30 34 30 20 30 32 2E 30 30 2E 30 30 30 31 20 62 30 31 2E 30 32 00 00 00 00 3B 3C | {}
20250518T082459 | 38 | B0 10 02 05 00 01 01 11 07 B0 10 02 05 00 01 01 11 07 B0 10 01 0E 00 02 00 01 52 AE B0 10 01 0E 00 02 00 01 52 AE | {}
20250518T082500 | 74 | B0 03 00 44 03 01 00 B0 00 00 00 03 00 05 03 E8 04 B0 04 88 06 40 00 1E 00 00 05 8C 05 46 05 8C 00 00 02 58 00 00 05 A0 01 E0 04 C4 05 DC 0D AC 0B B8 00 02 00 01 00 00 00 FF 00 00 00 FF 00 00 00 FF 00 00 00 64 00 FF 39 65 | {}
20250518T082501 | 94 | B0 03 00 58 05 73 00 00 00 00 00 00 00 00 00 00 05 2E 00 7E 05 30 FF 82 00 62 12 48 00 F0 00 00 00 01 05 26 00 00 08 E8 00 64 00 64 FF FF 00 00 00 00 00 FA 00 00 00 00 00 00 00 00 00 01 00 01 00 00 00 00 00 00 00 00 00 00 00 00 00 00 00 00 00 00 00 00 00 00 00 01 00 C0 FF FF 75 0B | {'solar_input_current': 0.0, 'solar_input_voltage_TBC': 13.95, 'aux_input_voltage_TBC': 0.0, 'aux_input_current': 0.0, 'output_voltage': 13.26, 'output_current': 1.26, 'battery_voltage': 13.28, 'battery_current': -1.26, 'battery_soc': 98, 'fresh_tank_1_pc': 100, 'fresh_tank_2_pc': 100}
20250518T082501 | 52 | B0 03 00 40 00 26 DE 25 B0 03 00 26 00 03 00 03 00 03 00 01 00 01 00 01 00 01 00 01 00 00 00 00 00 00 00 00 00 00 00 00 00 00 00 00 00 64 00 64 00 64 D2 C9 | {}
20250518T082501 | 44 | C0 03 01 00 00 1E D4 EF C0 03 00 1E 00 00 00 00 04 B3 00 02 00 02 00 00 00 FA 00 00 04 A7 00 D2 00 D2 00 D2 00 80 20 1F 00 07 CA B1 | {'PMDCS_input_voltage': 12.03, 'PMDCS_output_voltage': 0.02, 'PMDCS_current': 0.0}
20250518T082502 | 54 | C0 03 00 08 00 28 D4 C7 C0 03 00 28 01 15 00 C0 00 00 00 03 00 05 0B B8 04 B0 04 7E 06 40 00 0A 00 00 05 8C 05 46 05 8C 54 60 02 58 00 00 00 32 05 DC 0B B8 2A D9 | {}
20250518T082502 | 72 | C0 03 00 1C 00 80 95 7D C0 03 00 80 FF FF F0 00 54 60 00 0A 00 01 00 00 00 00 00 0A 0B B8 00 00 00 2D 00 01 00 2D 01 2C 04 88 00 3C 04 B0 00 50 04 88 00 28 0A 6A 0A 55 0A 62 0A 6A 0A 6A 04 C5 05 DE 00 62 50 5A 00 50 | {}
20250518T082502 | 70 | 00 00 00 00 00 00 00 00 05 A0 05 46 05 82 05 46 05 BE 05 46 05 F0 05 46 05 82 05 52 05 8C 05 46 05 8C 05 46 05 C8 05 46 05 BE 05 5A 00 01 00 00 00 14 00 3C 00 01 04 C4 04 B0 00 05 00 05 00 00 00 00 00 01 F6 96 | {}
20250518T082504 | 74 | B0 03 00 44 03 01 00 B0 00 00 00 03 00 05 03 E8 04 B0 04 88 06 40 00 1E 00 00 05 8C 05 46 05 8C 00 00 02 58 00 00 05 A0 01 E0 04 C4 05 DC 0D AC 0B B8 00 02 00 01 00 00 00 FF 00 00 00 FF 00 00 00 FF 00 00 00 64 00 FF 39 65 | {}
20250518T082504 | 94 | B0 03 00 58 07 31 00 00 00 00 00 00 00 00 00 00 05 2D 00 7C 05 2F FF 68 00 62 0F 27 00 F0 00 00 00 02 05 28 00 00 18 EB 00 64 00 64 FF FF 00 00 00 00 00 FA 00 00 00 00 00 00 00 00 00 01 00 01 00 00 00 00 00 00 00 00 00 00 00 00 00 00 00 00 00 00 00 00 00 00 00 01 00 C0 FF FF C9 F5 | {'solar_input_current': 0.0, 'solar_input_voltage_TBC': 18.41, 'aux_input_voltage_TBC': 0.0, 'aux_input_current': 0.0, 'output_voltage': 13.25, 'output_current': 1.24, 'battery_voltage': 13.27, 'battery_current': -1.52, 'battery_soc': 98, 'fresh_tank_1_pc': 100, 'fresh_tank_2_pc': 100}
20250518T082504 | 52 | B0 03 00 40 00 26 DE 25 B0 03 00 26 00 03 00 03 00 03 00 01 00 01 00 01 00 01 00 01 00 00 00 00 00 00 00 00 00 00 00 00 00 00 00 00 00 64 00 64 00 64 D2 C9 | {}
20250518T082505 | 44 | C0 03 01 00 00 1E D4 EF C0 03 00 1E 00 00 00 00 05 96 00 02 00 04 00 00 00 FA 00 00 05 87 00 D2 00 D2 00 D2 00 80 20 1F 00 07 81 3F | {'PMDCS_input_voltage': 14.3, 'PMDCS_output_voltage': 0.04, 'PMDCS_current': 0.0}
20250518T082505 | 54 | C0 03 00 08 00 28 D4 C7 C0 03 00 28 01 15 00 C0 00 00 00 03 00 05 0B B8 04 B0 04 7E 06 40 00 0A 00 00 05 8C 05 46 05 8C 54 60 02 58 00 00 00 32 05 DC 0B B8 2A D9 | {}
20250518T082506 | 134 | C0 03 00 80 FF FF F0 00 54 60 00 0A 00 01 00 00 00 00 00 0A 0B B8 00 00 00 2D 00 01 00 2D 01 2C 04 88 00 3C 04 B0 00 50 04 88 00 28 0A 6A 0A 55 0A 62 0A 6A 0A 6A 04 C5 05 DE 00 62 50 5A 00 50 00 00 00 00 00 00 00 00 05 A0 05 46 05 82 05 46 05 BE 05 46 05 F0 05 46 05 82 05 52 05 8C 05 46 05 8C 05 46 05 C8 05 46 05 BE 05 5A 00 01 00 00 00 14 00 3C 00 01 04 C4 04 B0 00 05 00 05 00 00 00 00 00 01 F6 96 | {}
20250518T082506 | 18 | B0 10 02 05 00 01 00 D0 C7 B0 10 02 05 00 01 00 D0 C7 | {}
20250518T082507 | 74 | B0 03 00 44 03 01 00 B0 00 00 00 03 00 05 03 E8 04 B0 04 88 06 40 00 1E 00 00 05 8C 05 46 05 8C 00 00 02 58 00 00 05 A0 01 E0 04 C4 05 DC 0D AC 0B B8 00 02 00 01 00 00 00 FF 00 00 00 FF 00 00 00 FF 00 00 00 64 00 FF 39 65 | {}
20250518T082507 | 94 | B0 03 00 58 08 5F 00 3B 00 00 00 00 00 01 00 00 05 2E 00 96 05 30 FF A5 00 62 19 50 00 F0 00 00 00 02 05 26 00 00 08 A8 00 64 00 64 FF FF 00 00 00 00 00 FA 00 00 00 00 00 00 00 00 00 01 00 01 00 00 00 00 00 00 00 00 00 00 00 00 00 00 00 00 00 00 00 00 00 00 00 01 00 C0 FF FF 45 A4 | {'solar_input_current': 0.59, 'solar_input_voltage_TBC': 21.43, 'aux_input_voltage_TBC': 0.01, 'aux_input_current': 0.0, 'output_voltage': 13.26, 'output_current': 1.5, 'battery_voltage': 13.28, 'battery_current': -0.91, 'battery_soc': 98, 'fresh_tank_1_pc': 100, 'fresh_tank_2_pc': 100}
20250518T082507 | 52 | B0 03 00 40 00 26 DE 25 B0 03 00 26 00 03 00 03 00 03 00 01 00 01 00 01 00 01 00 01 00 00 00 00 00 00 00 00 00 00 00 00 00 00 00 00 00 64 00 64 00 64 D2 C9 | {}
20250518T082508 | 44 | C0 03 01 00 00 1E D4 EF C0 03 00 1E 00 00 00 00 05 B6 00 02 00 04 00 00 00 FA 00 00 05 A7 00 D2 00 D2 00 D2 00 80 20 1F 00 07 55 35 | {'PMDCS_input_voltage': 14.62, 'PMDCS_output_voltage': 0.04, 'PMDCS_current': 0.0}
20250518T082508 | 54 | C0 03 00 08 00 28 D4 C7 C0 03 00 28 01 15 00 C0 00 00 00 03 00 05 0B B8 04 B0 04 7E 06 40 00 0A 00 00 05 8C 05 46 05 8C 54 60 02 58 00 00 00 32 05 DC 0B B8 2A D9 | {}
20250518T082508 | 134 | C0 03 00 80 FF FF F0 00 54 60 00 0A 00 01 00 00 00 00 00 0A 0B B8 00 00 00 2D 00 01 00 2D 01 2C 04 88 00 3C 04 B0 00 50 04 88 00 28 0A 6A 0A 55 0A 62 0A 6A 0A 6A 04 C5 05 DE 00 62 50 5A 00 50 00 00 00 00 00 00 00 00 05 A0 05 46 05 82 05 46 05 BE 05 46 05 F0 05 46 05 82 05 52 05 8C 05 46 05 8C 05 46 05 C8 05 46 05 BE 05 5A 00 01 00 00 00 14 00 3C 00 01 04 C4 04 B0 00 05 00 05 00 00 00 00 00 01 F6 96 | {}
20250518T082510 | 82 | B0 03 00 08 00 44 DF DA B0 03 00 44 03 01 00 B0 00 00 00 03 00 05 03 E8 04 B0 04 88 06 40 00 1E 00 00 05 8C 05 46 05 8C 00 00 02 58 00 00 05 A0 01 E0 04 C4 05 DC 0D AC 0B B8 00 02 00 01 00 00 00 FF 00 00 00 FF 00 00 00 FF 00 00 00 64 00 FF 39 65 | {}
20250518T082511 | 94 | B0 03 00 58 05 D0 00 00 00 00 00 00 00 02 00 00 05 2D 00 74 05 30 FF 8B 00 62 13 B0 00 F0 00 00 00 02 05 26 00 00 08 A8 00 64 00 64 FF FF 00 00 00 00 00 FA 00 00 00 00 00 00 00 00 00 01 00 01 00 00 00 00 00 00 00 00 00 00 00 00 00 00 00 00 00 00 00 00 00 00 00 01 00 C0 FF FF 69 A3 | {'solar_input_current': 0.0, 'solar_input_voltage_TBC': 14.88, 'aux_input_voltage_TBC': 0.02, 'aux_input_current': 0.0, 'output_voltage': 13.25, 'output_current': 1.16, 'battery_voltage': 13.28, 'battery_current': -1.17, 'battery_soc': 98, 'fresh_tank_1_pc': 100, 'fresh_tank_2_pc': 100}
20250518T082511 | 52 | B0 03 00 40 00 26 DE 25 B0 03 00 26 00 03 00 03 00 03 00 01 00 01 00 01 00 01 00 01 00 00 00 00 00 00 00 00 00 00 00 00 00 00 00 00 00 64 00 64 00 64 D2 C9 | {}
20250518T082511 | 44 | C0 03 01 00 00 1E D4 EF C0 03 00 1E 00 00 00 00 05 B3 00 02 00 05 00 00 00 FA 00 00 05 A4 00 D2 00 D2 00 D2 00 80 20 1F 00 07 41 FB | {'PMDCS_input_voltage': 14.59, 'PMDCS_output_voltage': 0.05, 'PMDCS_current': 0.0}
20250518T082511 | 54 | C0 03 00 08 00 28 D4 C7 C0 03 00 28 01 15 00 C0 00 00 00 03 00 05 0B B8 04 B0 04 7E 06 40 00 0A 00 00 05 8C 05 46 05 8C 54 60 02 58 00 00 00 32 05 DC 0B B8 2A D9 | {}
20250518T082512 | 64 | C0 03 00 80 FF FF F0 00 54 60 00 0A 00 01 00 00 00 00 00 0A 0B B8 00 00 00 2D 00 01 00 2D 01 2C 04 88 00 3C 04 B0 00 50 04 88 00 28 0A 6A 0A 55 0A 62 0A 6A 0A 6A 04 C5 05 DE 00 62 50 5A 00 50 | {}
20250518T082512 | 70 | 00 00 00 00 00 00 00 00 05 A0 05 46 05 82 05 46 05 BE 05 46 05 F0 05 46 05 82 05 52 05 8C 05 46 05 8C 05 46 05 C8 05 46 05 BE 05 5A 00 01 00 00 00 14 00 3C 00 01 04 C4 04 B0 00 05 00 05 00 00 00 00 00 01 F6 96 | {}
20250518T082513 | 18 | B0 10 02 05 00 01 00 D0 C7 B0 10 02 05 00 01 00 D0 C7 | {}
20250518T082514 | 74 | B0 03 00 44 03 01 00 B0 00 00 00 03 00 05 03 E8 04 B0 04 88 06 40 00 1E 00 00 05 8C 05 46 05 8C 00 00 02 58 00 00 05 A0 01 E0 04 C4 05 DC 0D AC 0B B8 00 02 00 01 00 00 00 FF 00 00 00 FF 00 00 00 FF 00 00 00 64 00 FF 39 65 | {}
20250518T082514 | 102 | B0 03 01 00 00 58 5E 2D B0 03 00 58 05 73 00 00 00 00 00 00 00 03 00 00 05 2D 00 78 05 30 FF 88 00 62 13 31 00 F0 00 00 00 02 05 26 00 00 08 A8 00 64 00 64 FF FF 00 00 00 00 00 FA 00 00 00 00 00 00 00 00 00 01 00 01 00 00 00 00 00 00 00 00 00 00 00 00 00 00 00 00 00 00 00 00 00 00 00 01 00 C0 FF FF BF 4B | {'solar_input_current': 0.0, 'solar_input_voltage_TBC': 13.95, 'aux_input_voltage_TBC': 0.03, 'aux_input_current': 0.0, 'output_voltage': 13.25, 'output_current': 1.2, 'battery_voltage': 13.28, 'battery_current': -1.2, 'battery_soc': 98, 'fresh_tank_1_pc': 100, 'fresh_tank_2_pc': 100}
20250518T082515 | 52 | B0 03 00 40 00 26 DE 25 B0 03 00 26 00 03 00 03 00 03 00 01 00 01 00 01 00 01 00 01 00 00 00 00 00 00 00 00 00 00 00 00 00 00 00 00 00 64 00 64 00 64 D2 C9 | {}
20250518T082515 | 44 | C0 03 01 00 00 1E D4 EF C0 03 00 1E 00 00 00 00 05 B2 00 02 00 06 00 00 00 FA 00 01 05 A3 00 D2 00 D2 00 D2 00 80 20 1F 00 07 EC 76 | {'PMDCS_input_voltage': 14.58, 'PMDCS_output_voltage': 0.06, 'PMDCS_current': 0.0}
20250518T082515 | 54 | C0 03 00 08 00 28 D4 C7 C0 03 00 28 01 15 00 C0 00 00 00 03 00 05 0B B8 04 B0 04 7E 06 40 00 0A 00 00 05 8C 05 46 05 8C 54 60 02 58 00 00 00 32 05 DC 0B B8 2A D9 | {}
20250518T082516 | 64 | C0 03 00 80 FF FF F0 00 54 60 00 0A 00 01 00 00 00 00 00 0A 0B B8 00 00 00 2D 00 01 00 2D 01 2C 04 88 00 3C 04 B0 00 50 04 88 00 28 0A 6A 0A 55 0A 62 0A 6A 0A 6A 04 C5 05 DE 00 62 50 5A 00 50 | {}
20250518T082516 | 70 | 00 00 00 00 00 00 00 00 05 A0 05 46 05 82 05 46 05 BE 05 46 05 F0 05 46 05 82 05 52 05 8C 05 46 05 8C 05 46 05 C8 05 46 05 BE 05 5A 00 01 00 00 00 14 00 3C 00 01 04 C4 04 B0 00 05 00 05 00 00 00 00 00 01 F6 96 | {}
20250518T082517 | 82 | B0 03 00 08 00 44 DF DA B0 03 00 44 03 01 00 B0 00 00 00 03 00 05 03 E8 04 B0 04 88 06 40 00 1E 00 00 05 8C 05 46 05 8C 00 00 02 58 00 00 05 A0 01 E0 04 C4 05 DC 0D AC 0B B8 00 02 00 01 00 00 00 FF 00 00 00 FF 00 00 00 FF 00 00 00 64 00 FF 39 65 | {}
20250518T082518 | 94 | B0 03 00 58 05 73 00 00 00 00 00 00 00 03 00 00 05 2D 00 76 05 30 FF 8A 00 62 13 85 00 F0 00 00 00 02 05 26 00 00 08 A8 00 64 00 64 FF FF 00 00 00 00 00 FA 00 00 00 00 00 00 00 00 00 01 00 01 00 00 00 00 00 00 00 00 00 00 00 00 00 00 00 00 00 00 00 00 00 00 00 01 00 C0 FF FF 64 99 | {'solar_input_current': 0.0, 'solar_input_voltage_TBC': 13.95, 'aux_input_voltage_TBC': 0.03, 'aux_input_current': 0.0, 'output_voltage': 13.25, 'output_current': 1.18, 'battery_voltage': 13.28, 'battery_current': -1.18, 'battery_soc': 98, 'fresh_tank_1_pc': 100, 'fresh_tank_2_pc': 100}
20250518T082518 | 52 | B0 03 00 40 00 26 DE 25 B0 03 00 26 00 03 00 03 00 03 00 01 00 01 00 01 00 01 00 01 00 00 00 00 00 00 00 00 00 00 00 00 00 00 00 00 00 64 00 64 00 64 D2 C9 | {}
20250518T082518 | 44 | C0 03 01 00 00 1E D4 EF C0 03 00 1E 00 00 00 00 05 B1 00 02 00 06 00 00 00 FA 00 00 05 A2 00 D2 00 D2 00 D2 00 80 20 1F 00 07 D0 BC | {'PMDCS_input_voltage': 14.57, 'PMDCS_output_voltage': 0.06, 'PMDCS_current': 0.0}
20250518T082519 | 54 | C0 03 00 08 00 28 D4 C7 C0 03 00 28 01 15 00 C0 00 00 00 03 00 05 0B B8 04 B0 04 7E 06 40 00 0A 00 00 05 8C 05 46 05 8C 54 60 02 58 00 00 00 32 05 DC 0B B8 2A D9 | {}
20250518T082519 | 64 | C0 03 00 80 FF FF F0 00 54 60 00 0A 00 01 00 00 00 00 00 0A 0B B8 00 00 00 2D 00 01 00 2D 01 2C 04 88 00 3C 04 B0 00 50 04 88 00 28 0A 6A 0A 55 0A 62 0A 6A 0A 6A 04 C5 05 DE 00 62 50 5A 00 50 | {}
20250518T082519 | 70 | 00 00 00 00 00 00 00 00 05 A0 05 46 05 82 05 46 05 BE 05 46 05 F0 05 46 05 82 05 52 05 8C 05 46 05 8C 05 46 05 C8 05 46 05 BE 05 5A 00 01 00 00 00 14 00 3C 00 01 04 C4 04 B0 00 05 00 05 00 00 00 00 00 01 F6 96 | {}
20250518T082520 | 18 | B0 10 02 05 00 01 00 D0 C7 B0 10 02 05 00 01 00 D0 C7 | {}
20250518T082521 | 74 | B0 03 00 44 03 01 00 B0 00 00 00 03 00 05 03 E8 04 B0 04 88 06 40 00 1E 00 00 05 8C 05 46 05 8C 00 00 02 58 00 00 05 A0 01 E0 04 C4 05 DC 0D AC 0B B8 00 02 00 01 00 00 00 FF 00 00 00 FF 00 00 00 FF 00 00 00 64 00 FF 39 65 | {}
20250518T082521 | 94 | B0 03 00 58 05 73 00 00 00 00 00 00 00 04 00 00 05 2D 00 74 05 2F FF 8C 00 62 13 DB 00 F0 00 00 00 02 05 27 00 00 08 A8 00 64 00 64 FF FF 00 00 00 00 00 FA 00 00 00 00 00 00 00 00 00 01 00 01 00 00 00 00 00 00 00 00 00 00 00 00 00 00 00 00 00 00 00 00 00 00 00 01 00 C0 FF FF 2E 8E | {'solar_input_current': 0.0, 'solar_input_voltage_TBC': 13.95, 'aux_input_voltage_TBC': 0.04, 'aux_input_current': 0.0, 'output_voltage': 13.25, 'output_current': 1.16, 'battery_voltage': 13.27, 'battery_current': -1.16, 'battery_soc': 98, 'fresh_tank_1_pc': 100, 'fresh_tank_2_pc': 100}
20250518T082522 | 52 | B0 03 00 40 00 26 DE 25 B0 03 00 26 00 03 00 03 00 03 00 01 00 01 00 01 00 01 00 01 00 00 00 00 00 00 00 00 00 00 00 00 00 00 00 00 00 64 00 64 00 64 D2 C9 | {}
20250518T082522 | 44 | C0 03 01 00 00 1E D4 EF C0 03 00 1E 00 00 00 00 05 43 00 02 00 07 00 00 00 FA 00 00 05 36 00 D2 00 D2 00 D2 00 80 20 1F 00 07 A2 CA | {'PMDCS_input_voltage': 13.47, 'PMDCS_output_voltage': 0.07, 'PMDCS_current': 0.0}
20250518T082522 | 54 | C0 03 00 08 00 28 D4 C7 C0 03 00 28 01 15 00 C0 00 00 00 03 00 05 0B B8 04 B0 04 7E 06 40 00 0A 00 00 05 8C 05 46 05 8C 54 60 02 58 00 00 00 32 05 DC 0B B8 2A D9 | {}
20250518T082523 | 64 | C0 03 00 80 FF FF F0 00 54 60 00 0A 00 01 00 00 00 00 00 0A 0B B8 00 00 00 2D 00 01 00 2D 01 2C 04 88 00 3C 04 B0 00 50 04 88 00 28 0A 6A 0A 55 0A 62 0A 6A 0A 6A 04 C5 05 DE 00 62 50 5A 00 50 | {}
20250518T082523 | 70 | 00 00 00 00 00 00 00 00 05 A0 05 46 05 82 05 46 05 BE 05 46 05 F0 05 46 05 82 05 52 05 8C 05 46 05 8C 05 46 05 C8 05 46 05 BE 05 5A 00 01 00 00 00 14 00 3C 00 01 04 C4 04 B0 00 05 00 05 00 00 00 00 00 01 F6 96 | {}
20250518T082524 | 74 | B0 03 00 44 03 01 00 B0 00 00 00 03 00 05 03 E8 04 B0 04 88 06 40 00 1E 00 00 05 8C 05 46 05 8C 00 00 02 58 00 00 05 A0 01 E0 04 C4 05 DC 0D AC 0B B8 00 02 00 01 00 00 00 FF 00 00 00 FF 00 00 00 FF 00 00 00 64 00 FF 39 65 | {}
20250518T082525 | 102 | B0 03 01 00 00 58 5E 2D B0 03 00 58 05 72 00 00 00 00 00 00 00 05 00 00 05 2D 00 77 05 2F FF 89 00 62 13 5B 00 F0 00 00 00 02 05 27 00 00 08 A8 00 64 00 64 FF FF 00 00 00 00 00 FA 00 00 00 00 00 00 00 00 00 01 00 01 00 00 00 00 00 00 00 00 00 00 00 00 00 00 00 00 00 00 00 00 00 00 00 01 00 C0 FF FF 16 12 | {'solar_input_current': 0.0, 'solar_input_voltage_TBC': 13.94, 'aux_input_voltage_TBC': 0.05, 'aux_input_current': 0.0, 'output_voltage': 13.25, 'output_current': 1.19, 'battery_voltage': 13.27, 'battery_current': -1.19, 'battery_soc': 98, 'fresh_tank_1_pc': 100, 'fresh_tank_2_pc': 100}
20250518T082525 | 52 | B0 03 00 40 00 26 DE 25 B0 03 00 26 00 03 00 03 00 03 00 01 00 01 00 01 00 01 00 01 00 00 00 00 00 00 00 00 00 00 00 00 00 00 00 00 00 64 00 64 00 64 D2 C9 | {}
20250518T082525 | 44 | C0 03 01 00 00 1E D4 EF C0 03 00 1E 00 00 00 00 05 05 00 02 04 0E 00 00 00 FA 00 06 04 F8 00 D2 00 D2 00 D2 00 90 20 18 00 07 37 AC | {'PMDCS_input_voltage': 12.85, 'PMDCS_output_voltage': 10.38, 'PMDCS_current': 0.0}
20250518T082526 | 54 | C0 03 00 08 00 28 D4 C7 C0 03 00 28 01 15 00 C0 00 00 00 03 00 05 0B B8 04 B0 04 7E 06 40 00 0A 00 00 05 8C 05 46 05 8C 54 60 02 58 00 00 00 32 05 DC 0B B8 2A D9 | {}
20250518T082526 | 134 | C0 03 00 80 FF FF F0 00 54 60 00 0A 00 01 00 00 00 00 00 0A 0B B8 00 00 00 2D 00 01 00 2D 01 2C 04 88 00 3C 04 B0 00 50 04 88 00 28 0A 6A 0A 55 0A 62 0A 6A 0A 6A 04 C5 05 DE 00 62 50 5A 00 50 00 00 00 00 00 00 00 00 05 A0 05 46 05 82 05 46 05 BE 05 46 05 F0 05 46 05 82 05 52 05 8C 05 46 05 8C 05 46 05 C8 05 46 05 BE 05 5A 00 01 00 00 00 14 00 3C 00 01 04 C4 04 B0 00 05 00 05 00 00 00 00 00 01 F6 96 | {}
20250518T082527 | 18 | B0 10 02 05 00 01 01 11 07 B0 10 02 05 00 01 01 11 07 | {}
20250518T082528 | 74 | B0 03 00 44 03 01 00 B0 00 00 00 03 00 05 03 E8 04 B0 04 88 06 40 00 1E 00 00 05 8C 05 46 05 8C 00 00 02 58 00 00 05 A0 01 E0 04 C4 05 DC 0D AC 0B B8 00 02 00 01 00 00 00 FF 00 00 00 FF 00 00 00 FF 00 00 00 64 00 FF 39 65 | {}
20250518T082528 | 94 | B0 03 00 58 05 88 00 00 00 00 00 00 05 46 00 00 05 3F 00 00 05 41 03 9D 00 62 00 0B 00 F0 00 00 00 02 05 2E 00 20 08 E8 00 64 00 64 FF FF 00 00 00 00 00 FA 00 00 00 00 00 00 00 00 00 00 00 00 00 00 00 00 00 00 00 00 00 00 00 00 00 00 00 00 00 00 00 00 00 00 00 01 00 C0 FF FF D1 8E | {'solar_input_current': 0.0, 'solar_input_voltage_TBC': 14.16, 'aux_input_voltage_TBC': 13.5, 'aux_input_current': 0.0, 'output_voltage': 13.43, 'output_current': 0.0, 'battery_voltage': 13.45, 'battery_current': 9.25, 'battery_soc': 98, 'fresh_tank_1_pc': 100, 'fresh_tank_2_pc': 100}
20250518T082529 | 52 | B0 03 00 40 00 26 DE 25 B0 03 00 26 00 03 00 03 00 03 00 01 00 01 00 01 00 01 00 01 00 00 00 00 00 00 00 00 00 00 00 00 00 00 00 00 00 64 00 64 00 64 D2 C9 | {}
20250518T082529 | 64 | C0 03 01 00 00 1E D4 EF C0 03 00 1E 00 00 00 00 04 DA 00 02 05 36 00 DC 00 FA 00 08 04 CD 00 D2 00 D2 00 D2 00 90 20 08 00 07 27 1D B0 10 01 0E 00 02 00 01 52 AE B0 10 01 0E 00 02 00 01 52 AE | {}
20250518T082530 | 74 | B0 03 00 44 03 01 00 B0 00 00 00 03 00 05 03 E8 04 B0 04 88 06 40 00 1E 00 00 05 8C 05 46 05 8C 00 00 02 58 00 00 05 A0 01 E0 04 C4 05 DC 0D AC 0B B8 00 02 00 01 00 00 00 FF 00 00 00 FF 00 00 00 FF 00 00 00 64 00 FF 39 65 | {}
20250518T082530 | 94 | B0 03 00 58 05 76 00 00 00 00 00 00 05 30 00 00 05 2D 00 00 05 30 FF 8F 00 62 14 62 00 F0 00 00 00 01 05 27 00 20 08 E8 00 64 00 64 FF FF 00 00 00 00 00 FA 00 00 00 00 00 00 00 00 00 00 00 00 00 00 00 00 00 00 00 00 00 00 00 00 00 00 00 00 00 00 00 00 00 00 00 01 00 C0 FF FF DF 73 | {'solar_input_current': 0.0, 'solar_input_voltage_TBC': 13.98, 'aux_input_voltage_TBC': 13.28, 'aux_input_current': 0.0, 'output_voltage': 13.25, 'output_current': 0.0, 'battery_voltage': 13.28, 'battery_current': -1.13, 'battery_soc': 98, 'fresh_tank_1_pc': 100, 'fresh_tank_2_pc': 100}
20250518T082530 | 52 | B0 03 00 40 00 26 DE 25 B0 03 00 26 00 03 00 03 00 03 00 01 00 01 00 01 00 01 00 01 00 00 00 00 00 00 00 00 00 00 00 00 00 00 00 00 00 64 00 64 00 64 D2 C9 | {}
20250518T082531 | 44 | C0 03 01 00 00 1E D4 EF C0 03 00 1E 00 00 00 00 04 E9 00 02 05 31 00 49 00 FA 00 08 04 DD 00 DC 00 D2 00 D2 00 90 20 08 00 07 7A B7 | {'PMDCS_input_voltage': 12.57, 'PMDCS_output_voltage': 13.29, 'PMDCS_current': 0.73}
20250518T082531 | 54 | C0 03 00 08 00 28 D4 C7 C0 03 00 28 01 15 00 C0 00 00 00 03 00 05 0B B8 04 B0 04 7E 06 40 00 0A 00 00 05 8C 05 46 05 8C 54 60 02 58 00 00 00 32 05 DC 0B B8 2A D9 | {}
20250518T082531 | 64 | C0 03 00 80 FF FF F0 00 54 60 00 0A 00 01 00 00 00 00 00 0A 0B B8 00 00 00 2D 00 01 00 2D 01 2C 04 88 00 3C 04 B0 00 50 04 88 00 28 0A 6A 0A 55 0A 62 0A 6A 0A 6A 04 C5 05 DE 00 62 50 5A 00 50 | {}
20250518T082531 | 70 | 00 00 00 93 00 00 00 00 05 A0 05 46 05 82 05 46 05 BE 05 46 05 F0 05 46 05 82 05 52 05 8C 05 46 05 8C 05 46 05 C8 05 46 05 BE 05 5A 00 01 00 00 00 14 00 3C 00 01 04 C4 04 B0 00 05 00 05 00 00 00 00 00 01 CA 7D | {}
20250518T082533 | 74 | B0 03 00 44 03 01 00 B0 00 00 00 03 00 05 03 E8 04 B0 04 88 06 40 00 1E 00 00 05 8C 05 46 05 8C 00 00 02 58 00 00 05 A0 01 E0 04 C4 05 DC 0D AC 0B B8 00 02 00 01 00 00 00 FF 00 00 00 FF 00 00 00 FF 00 00 00 64 00 FF 39 65 | {}
20250518T082534 | 94 | B0 03 00 58 05 7B 00 00 00 00 00 00 05 36 00 00 05 32 00 00 05 34 00 A2 00 62 00 3F 00 F0 00 00 00 02 05 2B 00 20 08 E8 00 64 00 64 FF FF 00 00 00 00 00 F0 00 00 00 00 00 00 00 00 00 00 00 00 00 00 00 00 00 00 00 00 00 00 00 00 00 00 00 00 00 00 00 00 00 00 00 01 00 C0 FF FF 2A 7A | {'solar_input_current': 0.0, 'solar_input_voltage_TBC': 14.03, 'aux_input_voltage_TBC': 13.34, 'aux_input_current': 0.0, 'output_voltage': 13.3, 'output_current': 0.0, 'battery_voltage': 13.32, 'battery_current': 1.62, 'battery_soc': 98, 'fresh_tank_1_pc': 100, 'fresh_tank_2_pc': 100}
20250518T082534 | 52 | B0 03 00 40 00 26 DE 25 B0 03 00 26 00 03 00 03 00 03 00 01 00 01 00 01 00 01 00 01 00 00 00 00 00 00 00 00 00 00 00 00 00 00 00 00 00 64 00 64 00 64 D2 C9 | {}
20250518T082534 | 62 | C0 03 01 00 00 1E D4 EF C0 03 00 1E 00 00 00 00 04 C5 00 02 05 39 01 6C 00 FA 00 08 04 B9 00 DC 00 D2 00 D2 00 90 20 08 00 07 52 04 B0 10 02 05 00 01 01 11 07 B0 10 02 05 00 01 01 11 07 | {}
20250518T082535 | 74 | B0 03 00 44 03 01 00 B0 00 00 00 03 00 05 03 E8 04 B0 04 88 06 40 00 1E 00 00 05 8C 05 46 05 8C 00 00 02 58 00 00 05 A0 01 E0 04 C4 05 DC 0D AC 0B B8 00 02 00 01 00 00 00 FF 00 00 00 FF 00 00 00 FF 00 00 00 64 00 FF 39 65 | {}
20250518T082535 | 94 | B0 03 00 58 05 7D 00 00 00 00 00 00 05 38 00 00 05 34 00 00 05 36 01 06 00 62 00 27 00 F0 00 00 00 02 05 2A 00 20 08 E8 00 64 00 64 FF FF 00 00 00 00 00 F0 00 00 00 00 00 00 00 00 00 00 00 00 00 00 00 00 00 00 00 00 00 00 00 00 00 00 00 00 00 00 00 00 00 00 00 01 00 C0 FF FF CA E6 | {'solar_input_current': 0.0, 'solar_input_voltage_TBC': 14.05, 'aux_input_voltage_TBC': 13.36, 'aux_input_current': 0.0, 'output_voltage': 13.32, 'output_current': 0.0, 'battery_voltage': 13.34, 'battery_current': 2.62, 'battery_soc': 98, 'fresh_tank_1_pc': 100, 'fresh_tank_2_pc': 100}
20250518T082536 | 52 | B0 03 00 40 00 26 DE 25 B0 03 00 26 00 03 00 03 00 03 00 01 00 01 00 01 00 01 00 01 00 00 00 00 00 00 00 00 00 00 00 00 00 00 00 00 00 64 00 64 00 64 D2 C9 | {}
20250518T082536 | 44 | C0 03 01 00 00 1E D4 EF C0 03 00 1E 00 00 00 00 04 B8 00 02 05 3D 01 CD 00 FA 00 08 04 AC 00 DC 00 D2 00 D2 00 90 20 08 00 07 B8 4C | {'PMDCS_input_voltage': 12.08, 'PMDCS_output_voltage': 13.41, 'PMDCS_current': 4.61}
20250518T082536 | 54 | C0 03 00 08 00 28 D4 C7 C0 03 00 28 01 15 00 C0 00 00 00 03 00 05 0B B8 04 B0 04 7E 06 40 00 0A 00 00 05 8C 05 46 05 8C 54 60 02 58 00 00 00 32 05 DC 0B B8 2A D9 | {}
20250518T082537 | 64 | C0 03 00 80 FF FF F0 00 54 60 00 0A 00 01 00 00 00 00 00 0A 0B B8 00 00 00 2D 00 01 00 2D 01 2C 04 88 00 3C 04 B0 00 50 04 88 00 28 0A 6A 0A 55 0A 62 0A 6A 0A 6A 04 C5 05 DE 00 62 50 5A 00 50 | {}
20250518T082537 | 70 | 00 00 01 6C 00 00 00 00 05 A0 05 46 05 82 05 46 05 BE 05 46 05 F0 05 46 05 82 05 52 05 8C 05 46 05 8C 05 46 05 C8 05 46 05 BE 05 5A 00 01 00 00 00 14 00 3C 00 01 04 C4 04 B0 00 05 00 05 00 00 00 00 00 01 CA 49 | {}
20250518T082538 | 74 | B0 03 00 44 03 01 00 B0 00 00 00 03 00 05 03 E8 04 B0 04 88 06 40 00 1E 00 00 05 8C 05 46 05 8C 00 00 02 58 00 00 05 A0 01 E0 04 C4 05 DC 0D AC 0B B8 00 02 00 01 00 00 00 FF 00 00 00 FF 00 00 00 FF 00 00 00 64 00 FF 39 65 | {}
20250518T082539 | 94 | B0 03 00 58 05 76 00 00 00 00 00 00 05 30 00 00 05 2E 00 00 05 30 FF 76 00 62 10 B1 00 F0 00 00 00 02 05 26 00 20 08 E8 00 64 00 64 FF FF 00 00 00 00 00 F0 00 00 00 00 00 00 00 00 00 00 00 00 00 00 00 00 00 00 00 00 00 00 00 00 00 00 00 00 00 00 00 00 00 00 00 01 00 C0 FF FF 51 7E | {'solar_input_current': 0.0, 'solar_input_voltage_TBC': 13.98, 'aux_input_voltage_TBC': 13.28, 'aux_input_current': 0.0, 'output_voltage': 13.26, 'output_current': 0.0, 'battery_voltage': 13.28, 'battery_current': -1.38, 'battery_soc': 98, 'fresh_tank_1_pc': 100, 'fresh_tank_2_pc': 100}
20250518T082539 | 52 | B0 03 00 40 00 26 DE 25 B0 03 00 26 00 03 00 03 00 03 00 01 00 01 00 01 00 01 00 01 00 00 00 00 00 00 00 00 00 00 00 00 00 00 00 00 00 64 00 64 00 64 D2 C9 | {}
20250518T082539 | 44 | C0 03 01 00 00 1E D4 EF C0 03 00 1E 00 00 00 00 01 8E 00 02 05 2D 00 00 00 FA 00 08 01 8B 00 E6 00 D2 00 DC 00 90 20 08 00 07 D9 22 | {'PMDCS_input_voltage': 3.98, 'PMDCS_output_voltage': 13.25, 'PMDCS_current': 0.0}
20250518T082540 | 54 | C0 03 00 08 00 28 D4 C7 C0 03 00 28 01 15 00 C0 00 00 00 03 00 05 0B B8 04 B0 04 7E 06 40 00 0A 00 00 05 8C 05 46 05 8C 54 60 02 58 00 00 00 32 05 DC 0B B8 2A D9 | {}
20250518T082540 | 64 | C0 03 00 80 FF FF F0 00 54 60 00 0A 00 01 00 00 00 00 00 0A 0B B8 00 00 00 2D 00 01 00 2D 01 2C 04 88 00 3C 04 B0 00 50 04 88 00 28 0A 6A 0A 55 0A 62 0A 6A 0A 6A 04 C5 05 DE 00 62 50 5A 00 50 | {}
20250518T082540 | 70 | 00 00 01 B3 00 00 00 00 05 A0 05 46 05 82 05 46 05 BE 05 46 05 F0 05 46 05 82 05 52 05 8C 05 46 05 8C 05 46 05 C8 05 46 05 BE 05 5A 00 01 00 00 00 14 00 3C 00 01 04 C4 04 B0 00 05 00 05 00 00 00 00 00 01 82 6F | {}
20250518T082541 | 18 | B0 10 02 05 00 01 01 11 07 B0 10 02 05 00 01 01 11 07 | {}
20250518T082542 | 74 | B0 03 00 44 03 01 00 B0 00 00 00 03 00 05 03 E8 04 B0 04 88 06 40 00 1E 00 00 05 8C 05 46 05 8C 00 00 02 58 00 00 05 A0 01 E0 04 C4 05 DC 0D AC 0B B8 00 02 00 01 00 00 00 FF 00 00 00 FF 00 00 00 FF 00 00 00 64 00 FF 39 65 | {}
20250518T082542 | 94 | B0 03 00 58 09 0F 00 00 00 00 00 00 05 2E 00 00 05 2C 00 BE 05 2E FF 42 00 62 0C 1F 00 F0 00 00 00 02 05 26 00 20 18 EB 00 64 00 64 FF FF 00 00 00 00 00 F0 00 00 00 00 00 00 00 00 00 00 00 00 00 00 00 00 00 00 00 00 00 00 00 00 00 00 00 00 00 00 00 00 00 00 00 01 00 C0 FF FF F3 DF | {'solar_input_current': 0.0, 'solar_input_voltage_TBC': 23.19, 'aux_input_voltage_TBC': 13.26, 'aux_input_current': 0.0, 'output_voltage': 13.24, 'output_current': 1.9, 'battery_voltage': 13.26, 'battery_current': -1.9, 'battery_soc': 98, 'fresh_tank_1_pc': 100, 'fresh_tank_2_pc': 100}
20250518T082543 | 52 | B0 03 00 40 00 26 DE 25 B0 03 00 26 00 03 00 03 00 03 00 01 00 01 00 01 00 01 00 01 00 00 00 00 00 00 00 00 00 00 00 00 00 00 00 00 00 64 00 64 00 64 D2 C9 | {}
20250518T082543 | 44 | C0 03 01 00 00 1E D4 EF C0 03 00 1E 00 00 00 00 01 82 00 02 05 2C 00 00 00 FA 00 08 01 7E 00 DC 00 D2 00 D2 00 80 00 0F 00 07 30 B2 | {'PMDCS_input_voltage': 3.86, 'PMDCS_output_voltage': 13.24, 'PMDCS_current': 0.0}
20250518T082543 | 54 | C0 03 00 08 00 28 D4 C7 C0 03 00 28 01 15 00 C0 00 00 00 03 00 05 0B B8 04 B0 04 7E 06 40 00 0A 00 00 05 8C 05 46 05 8C 54 60 02 58 00 00 00 32 05 DC 0B B8 2A D9 | {}
20250518T082544 | 64 | C0 03 00 80 FF FF F0 00 54 60 00 0A 00 01 00 00 00 00 00 0A 0B B8 00 00 00 2D 00 01 00 2D 01 2C 04 88 00 3C 04 B0 00 50 04 88 00 28 0A 6A 0A 55 0A 62 0A 6A 0A 6A 04 C5 05 DE 00 62 50 5A 00 50 | {}
20250518T082544 | 70 | 00 00 01 B3 00 00 00 00 05 A0 05 46 05 82 05 46 05 BE 05 46 05 F0 05 46 05 82 05 52 05 8C 05 46 05 8C 05 46 05 C8 05 46 05 BE 05 5A 00 01 00 00 00 14 00 3C 00 01 04 C4 04 B0 00 05 00 05 00 00 00 00 00 01 82 6F | {}
20250518T082546 | 74 | B0 03 00 44 03 01 00 B0 00 00 00 03 00 05 03 E8 04 B0 04 88 06 40 00 1E 00 00 05 8C 05 46 05 8C 00 00 02 58 00 00 05 A0 01 E0 04 C4 05 DC 0D AC 0B B8 00 02 00 01 00 00 00 FF 00 00 00 FF 00 00 00 FF 00 00 00 64 00 FF 39 65 | {}
20250518T082546 | 94 | B0 03 00 58 06 D1 00 00 00 00 00 00 05 30 00 00 05 2E 00 75 05 30 FF 87 00 62 13 09 00 F0 00 00 00 02 05 26 00 20 08 E8 00 64 00 64 FF FF 00 00 00 00 00 F0 00 00 00 00 00 00 00 00 00 00 00 00 00 00 00 00 00 00 00 00 00 00 00 00 00 00 00 00 00 00 00 00 00 00 00 01 00 C0 FF FF 97 04 | {'solar_input_current': 0.0, 'solar_input_voltage_TBC': 17.45, 'aux_input_voltage_TBC': 13.28, 'aux_input_current': 0.0, 'output_voltage': 13.26, 'output_current': 1.17, 'battery_voltage': 13.28, 'battery_current': -1.21, 'battery_soc': 98, 'fresh_tank_1_pc': 100, 'fresh_tank_2_pc': 100}
20250518T082546 | 52 | B0 03 00 40 00 26 DE 25 B0 03 00 26 00 03 00 03 00 03 00 01 00 01 00 01 00 01 00 01 00 00 00 00 00 00 00 00 00 00 00 00 00 00 00 00 00 64 00 64 00 64 D2 C9 | {}
20250518T082547 | 44 | C0 03 01 00 00 1E D4 EF C0 03 00 1E 00 00 00 00 01 73 00 02 05 2D 00 00 00 FA 00 08 01 6F 00 DC 00 D2 00 D2 00 80 00 0F 00 07 4E 4B | {'PMDCS_input_voltage': 3.71, 'PMDCS_output_voltage': 13.25, 'PMDCS_current': 0.0}
20250518T082547 | 54 | C0 03 00 08 00 28 D4 C7 C0 03 00 28 01 15 00 C0 00 00 00 03 00 05 0B B8 04 B0 04 7E 06 40 00 0A 00 00 05 8C 05 46 05 8C 54 60 02 58 00 00 00 32 05 DC 0B B8 2A D9 | {}
20250518T082547 | 64 | C0 03 00 80 FF FF F0 00 54 60 00 0A 00 01 00 00 00 00 00 0A 0B B8 00 00 00 2D 00 01 00 2D 01 2C 04 88 00 3C 04 B0 00 50 04 88 00 28 0A 6A 0A 55 0A 62 0A 6A 0A 6A 04 C5 05 DE 00 62 50 5A 00 50 | {}
20250518T082547 | 70 | 00 00 01 B3 00 00 00 00 05 A0 05 46 05 82 05 46 05 BE 05 46 05 F0 05 46 05 82 05 52 05 8C 05 46 05 8C 05 46 05 C8 05 46 05 BE 05 5A 00 01 00 00 00 14 00 3C 00 01 04 C4 04 B0 00 05 00 05 00 00 00 00 00 01 82 6F | {}
20250518T082548 | 18 | B0 10 02 05 00 01 00 D0 C7 B0 10 02 05 00 01 00 D0 C7 | {}
20250518T082549 | 74 | B0 03 00 44 03 01 00 B0 00 00 00 03 00 05 03 E8 04 B0 04 88 06 40 00 1E 00 00 05 8C 05 46 05 8C 00 00 02 58 00 00 05 A0 01 E0 04 C4 05 DC 0D AC 0B B8 00 02 00 01 00 00 00 FF 00 00 00 FF 00 00 00 FF 00 00 00 64 00 FF 39 65 | {}
20250518T082549 | 94 | B0 03 00 58 05 75 00 00 00 00 00 00 03 ED 00 00 05 2D 00 6B 05 30 FF 94 00 62 15 53 00 F0 00 00 00 02 05 26 00 20 08 A8 00 64 00 64 FF FF 00 00 00 00 00 F0 00 00 00 00 00 00 00 00 00 00 00 00 00 00 00 00 00 00 00 00 00 00 00 00 00 00 00 00 00 00 00 00 00 00 00 01 00 C0 FF FF 4C 5A | {'solar_input_current': 0.0, 'solar_input_voltage_TBC': 13.97, 'aux_input_voltage_TBC': 10.05, 'aux_input_current': 0.0, 'output_voltage': 13.25, 'output_current': 1.07, 'battery_voltage': 13.28, 'battery_current': -1.08, 'battery_soc': 98, 'fresh_tank_1_pc': 100, 'fresh_tank_2_pc': 100}
20250518T082550 | 52 | B0 03 00 40 00 26 DE 25 B0 03 00 26 00 03 00 03 00 03 00 01 00 01 00 01 00 01 00 01 00 00 00 00 00 00 00 00 00 00 00 00 00 00 00 00 00 64 00 64 00 64 D2 C9 | {}
20250518T082552 | 74 | B0 03 00 44 03 01 00 B0 00 00 00 03 00 05 03 E8 04 B0 04 88 06 40 00 1E 00 00 05 8C 05 46 05 8C 00 00 02 58 00 00 05 A0 01 E0 04 C4 05 DC 0D AC 0B B8 00 02 00 01 00 00 00 FF 00 00 00 FF 00 00 00 FF 00 00 00 64 00 FF 39 65 | {}
20250518T082553 | 102 | B0 03 01 00 00 58 5E 2D B0 03 00 58 05 75 00 00 00 00 00 00 03 67 00 00 05 2E 00 66 05 30 FF 9A 00 62 16 94 00 F0 00 00 00 02 05 26 00 60 08 A8 00 64 00 64 FF FF 00 00 00 00 00 F0 00 00 00 00 00 00 00 00 00 00 00 00 00 00 00 00 00 00 00 00 00 00 00 00 00 00 00 00 00 00 00 00 00 00 00 01 00 C0 FF FF 28 63 | {'solar_input_current': 0.0, 'solar_input_voltage_TBC': 13.97, 'aux_input_voltage_TBC': 8.71, 'aux_input_current': 0.0, 'output_voltage': 13.26, 'output_current': 1.02, 'battery_voltage': 13.28, 'battery_current': -1.02, 'battery_soc': 98, 'fresh_tank_1_pc': 100, 'fresh_tank_2_pc': 100}
20250518T082553 | 52 | B0 03 00 40 00 26 DE 25 B0 03 00 26 00 03 00 03 00 03 00 01 00 01 00 01 00 01 00 01 00 00 00 00 00 00 00 00 00 00 00 00 00 00 00 00 00 64 00 64 00 64 D2 C9 | {}
20250518T082555 | 74 | B0 03 00 44 03 01 00 B0 00 00 00 03 00 05 03 E8 04 B0 04 88 06 40 00 1E 00 00 05 8C 05 46 05 8C 00 00 02 58 00 00 05 A0 01 E0 04 C4 05 DC 0D AC 0B B8 00 02 00 01 00 00 00 FF 00 00 00 FF 00 00 00 FF 00 00 00 64 00 FF 39 65 | {}
20250518T082555 | 94 | B0 03 00 58 05 76 00 00 00 00 00 00 03 11 00 00 05 2E 00 4E 05 30 FF 9E 00 62 17 80 00 F0 00 00 00 02 05 26 00 60 08 A8 00 64 00 64 FF FF 00 00 00 00 00 F0 00 00 00 00 00 00 00 00 00 00 00 00 00 00 00 00 00 00 00 00 00 00 00 00 00 00 00 00 00 00 00 00 00 00 00 01 00 C0 FF FF DF F9 | {'solar_input_current': 0.0, 'solar_input_voltage_TBC': 13.98, 'aux_input_voltage_TBC': 7.85, 'aux_input_current': 0.0, 'output_voltage': 13.26, 'output_current': 0.78, 'battery_voltage': 13.28, 'battery_current': -0.98, 'battery_soc': 98, 'fresh_tank_1_pc': 100, 'fresh_tank_2_pc': 100}
20250518T082556 | 52 | B0 03 00 40 00 26 DE 25 B0 03 00 26 00 03 00 03 00 03 00 01 00 01 00 01 00 01 00 01 00 00 00 00 00 00 00 00 00 00 00 00 00 00 00 00 00 64 00 64 00 64 D2 C9 | {}
20250518T082558 | 74 | B0 03 00 44 03 01 00 B0 00 00 00 03 00 05 03 E8 04 B0 04 88 06 40 00 1E 00 00 05 8C 05 46 05 8C 00 00 02 58 00 00 05 A0 01 E0 04 C4 05 DC 0D AC 0B B8 00 02 00 01 00 00 00 FF 00 00 00 FF 00 00 00 FF 00 00 00 64 00 FF 39 65 | {}
20250518T082558 | 94 | B0 03 00 58 05 76 00 00 00 00 00 00 02 C4 00 00 05 2E 00 4D 05 30 FF 9F 00 62 17 BE 00 F0 00 00 00 02 05 26 00 60 08 A8 00 64 00 64 FF FF 00 00 00 00 00 FA 00 00 00 00 00 00 00 00 00 00 00 00 00 00 00 00 00 00 00 00 00 00 00 00 00 00 00 00 00 00 00 00 00 00 00 01 00 C0 FF FF 17 C1 | {'solar_input_current': 0.0, 'solar_input_voltage_TBC': 13.98, 'aux_input_voltage_TBC': 7.08, 'aux_input_current': 0.0, 'output_voltage': 13.26, 'output_current': 0.77, 'battery_voltage': 13.28, 'battery_current': -0.97, 'battery_soc': 98, 'fresh_tank_1_pc': 100, 'fresh_tank_2_pc': 100}
20250518T082558 | 52 | B0 03 00 40 00 26 DE 25 B0 03 00 26 00 03 00 03 00 03 00 01 00 01 00 01 00 01 00 01 00 00 00 00 00 00 00 00 00 00 00 00 00 00 00 00 00 64 00 64 00 64 D2 C9 | {}
20250518T082559 | 20 | B0 10 01 0E 00 02 00 01 52 AE B0 10 01 0E 00 02 00 01 52 AE | {}
20250518T082600 | 74 | B0 03 00 44 03 01 00 B0 00 00 00 03 00 05 03 E8 04 B0 04 88 06 40 00 1E 00 00 05 8C 05 46 05 8C 00 00 02 58 00 00 05 A0 01 E0 04 C4 05 DC 0D AC 0B B8 00 02 00 01 00 00 00 FF 00 00 00 FF 00 00 00 FF 00 00 00 64 00 FF 39 65 | {}
20250518T082600 | 94 | B0 03 00 58 05 76 00 00 00 00 00 00 02 90 00 00 05 2E 00 4B 05 30 FF A1 00 62 18 3E 00 F0 00 00 00 01 05 26 00 60 08 A8 00 64 00 64 FF FF 00 00 00 00 00 FA 00 00 00 00 00 00 00 00 00 00 00 00 00 00 00 00 00 00 00 00 00 00 00 00 00 00 00 00 00 00 00 00 00 00 00 01 00 C0 FF FF F8 5D | {'solar_input_current': 0.0, 'solar_input_voltage_TBC': 13.98, 'aux_input_voltage_TBC': 6.56, 'aux_input_current': 0.0, 'output_voltage': 13.26, 'output_current': 0.75, 'battery_voltage': 13.28, 'battery_current': -0.95, 'battery_soc': 98, 'fresh_tank_1_pc': 100, 'fresh_tank_2_pc': 100}
20250518T082601 | 52 | B0 03 00 40 00 26 DE 25 B0 03 00 26 00 03 00 03 00 03 00 01 00 01 00 01 00 01 00 01 00 00 00 00 00 00 00 00 00 00 00 00 00 00 00 00 00 64 00 64 00 64 D2 C9 | {}
20250518T082603 | 74 | B0 03 00 44 03 01 00 B0 00 00 00 03 00 05 03 E8 04 B0 04 88 06 40 00 1E 00 00 05 8C 05 46 05 8C 00 00 02 58 00 00 05 A0 01 E0 04 C4 05 DC 0D AC 0B B8 00 02 00 01 00 00 00 FF 00 00 00 FF 00 00 00 FF 00 00 00 64 00 FF 39 65 | {}
20250518T082603 | 94 | B0 03 00 58 05 75 00 00 00 00 00 00 02 42 00 00 05 2E 00 70 05 30 FF A2 00 62 18 80 00 F0 00 00 00 02 05 26 00 60 08 A8 00 64 00 64 FF FF 00 00 00 00 00 FA 00 00 00 00 00 00 00 00 00 00 00 00 00 00 00 00 00 00 00 00 00 00 00 00 00 00 00 00 00 00 00 00 00 00 00 01 00 C0 FF FF 49 DB | {'solar_input_current': 0.0, 'solar_input_voltage_TBC': 13.97, 'aux_input_voltage_TBC': 5.78, 'aux_input_current': 0.0, 'output_voltage': 13.26, 'output_current': 1.12, 'battery_voltage': 13.28, 'battery_current': -0.94, 'battery_soc': 98, 'fresh_tank_1_pc': 100, 'fresh_tank_2_pc': 100}
20250518T082603 | 52 | B0 03 00 40 00 26 DE 25 B0 03 00 26 00 03 00 03 00 03 00 01 00 01 00 01 00 01 00 01 00 00 00 00 00 00 00 00 00 00 00 00 00 00 00 00 00 64 00 64 00 64 D2 C9 | {}
20250518T082605 | 74 | B0 03 00 44 03 01 00 B0 00 00 00 03 00 05 03 E8 04 B0 04 88 06 40 00 1E 00 00 05 8C 05 46 05 8C 00 00 02 58 00 00 05 A0 01 E0 04 C4 05 DC 0D AC 0B B8 00 02 00 01 00 00 00 FF 00 00 00 FF 00 00 00 FF 00 00 00 64 00 FF 39 65 | {}
20250518T082606 | 94 | B0 03 00 58 05 76 00 00 00 00 00 00 02 0B 00 00 05 2E 00 85 05 30 FF A2 00 62 18 80 00 F0 00 00 00 02 05 26 00 60 08 A8 00 64 00 64 FF FF 00 00 00 00 00 FA 00 00 00 00 00 00 00 00 00 00 00 00 00 00 00 00 00 00 00 00 00 00 00 00 00 00 00 00 00 00 00 00 00 00 00 01 00 C0 FF FF B6 10 | {'solar_input_current': 0.0, 'solar_input_voltage_TBC': 13.98, 'aux_input_voltage_TBC': 5.23, 'aux_input_current': 0.0, 'output_voltage': 13.26, 'output_current': 1.33, 'battery_voltage': 13.28, 'battery_current': -0.94, 'battery_soc': 98, 'fresh_tank_1_pc': 100, 'fresh_tank_2_pc': 100}
20250518T082606 | 52 | B0 03 00 40 00 26 DE 25 B0 03 00 26 00 03 00 03 00 03 00 01 00 01 00 01 00 01 00 01 00 00 00 00 00 00 00 00 00 00 00 00 00 00 00 00 00 64 00 64 00 64 D2 C9 | {}
20250518T082608 | 82 | B0 03 00 08 00 44 DF DA B0 03 00 44 03 01 00 B0 00 00 00 03 00 05 03 E8 04 B0 04 88 06 40 00 1E 00 00 05 8C 05 46 05 8C 00 00 02 58 00 00 05 A0 01 E0 04 C4 05 DC 0D AC 0B B8 00 02 00 01 00 00 00 FF 00 00 00 FF 00 00 00 FF 00 00 00 64 00 FF 39 65 | {}
20250518T082608 | 94 | B0 03 00 58 05 76 00 00 00 00 00 00 01 D9 00 00 05 2E 00 87 05 30 FF A2 00 62 18 80 00 F0 00 00 00 02 05 26 00 60 08 A8 00 64 00 64 FF FF 00 00 00 00 00 FA 00 00 00 00 00 00 00 00 00 00 00 00 00 00 00 00 00 00 00 00 00 00 00 00 00 00 00 00 00 00 00 00 00 00 00 01 00 C0 FF FF 38 74 | {'solar_input_current': 0.0, 'solar_input_voltage_TBC': 13.98, 'aux_input_voltage_TBC': 4.73, 'aux_input_current': 0.0, 'output_voltage': 13.26, 'output_current': 1.35, 'battery_voltage': 13.28, 'battery_current': -0.94, 'battery_soc': 98, 'fresh_tank_1_pc': 100, 'fresh_tank_2_pc': 100}
20250518T082609 | 52 | B0 03 00 40 00 26 DE 25 B0 03 00 26 00 03 00 03 00 03 00 01 00 01 00 01 00 01 00 01 00 00 00 00 00 00 00 00 00 00 00 00 00 00 00 00 00 64 00 64 00 64 D2 C9 | {}
20250518T082611 | 74 | B0 03 00 44 03 01 00 B0 00 00 00 03 00 05 03 E8 04 B0 04 88 06 40 00 1E 00 00 05 8C 05 46 05 8C 00 00 02 58 00 00 05 A0 01 E0 04 C4 05 DC 0D AC 0B B8 00 02 00 01 00 00 00 FF 00 00 00 FF 00 00 00 FF 00 00 00 64 00 FF 39 65 | {}
20250518T082611 | 94 | B0 03 00 58 05 73 00 00 00 00 00 00 01 AC 00 00 05 2D 00 73 05 2F FF 9A 00 62 16 94 00 F0 00 00 00 02 05 27 00 60 08 A8 00 64 00 64 FF FF 00 00 00 00 00 FA 00 00 00 00 00 00 00 00 00 01 00 01 00 00 00 00 00 00 00 00 00 00 00 00 00 00 00 00 00 00 00 00 00 00 00 01 00 C0 FF FF 3B CC | {'solar_input_current': 0.0, 'solar_input_voltage_TBC': 13.95, 'aux_input_voltage_TBC': 4.28, 'aux_input_current': 0.0, 'output_voltage': 13.25, 'output_current': 1.15, 'battery_voltage': 13.27, 'battery_current': -1.02, 'battery_soc': 98, 'fresh_tank_1_pc': 100, 'fresh_tank_2_pc': 100}
20250518T082611 | 52 | B0 03 00 40 00 26 DE 25 B0 03 00 26 00 03 00 03 00 03 00 01 00 01 00 01 00 01 00 01 00 00 00 00 00 00 00 00 00 00 00 00 00 00 00 00 00 64 00 64 00 64 D2 C9 | {}
20250518T082613 | 74 | B0 03 00 44 03 01 00 B0 00 00 00 03 00 05 03 E8 04 B0 04 88 06 40 00 1E 00 00 05 8C 05 46 05 8C 00 00 02 58 00 00 05 A0 01 E0 04 C4 05 DC 0D AC 0B B8 00 02 00 01 00 00 00 FF 00 00 00 FF 00 00 00 FF 00 00 00 64 00 FF 39 65 | {}
20250518T082614 | 102 | B0 03 01 00 00 58 5E 2D B0 03 00 58 05 72 00 00 00 00 00 00 01 7A 00 00 05 2D 00 6A 05 2F FF 97 00 62 15 EF 00 F0 00 00 00 02 05 27 00 60 08 A8 00 64 00 64 FF FF 00 00 00 00 00 FA 00 00 00 00 00 00 00 00 00 01 00 01 00 00 00 00 00 00 00 00 00 00 00 00 00 00 00 00 00 00 00 00 00 00 00 01 00 C0 FF FF AF D0 | {'solar_input_current': 0.0, 'solar_input_voltage_TBC': 13.94, 'aux_input_voltage_TBC': 3.78, 'aux_input_current': 0.0, 'output_voltage': 13.25, 'output_current': 1.06, 'battery_voltage': 13.27, 'battery_current': -1.05, 'battery_soc': 98, 'fresh_tank_1_pc': 100, 'fresh_tank_2_pc': 100}
20250518T082614 | 52 | B0 03 00 40 00 26 DE 25 B0 03 00 26 00 03 00 03 00 03 00 01 00 01 00 01 00 01 00 01 00 00 00 00 00 00 00 00 00 00 00 00 00 00 00 00 00 64 00 64 00 64 D2 C9 | {}
20250518T082616 | 74 | B0 03 00 44 03 01 00 B0 00 00 00 03 00 05 03 E8 04 B0 04 88 06 40 00 1E 00 00 05 8C 05 46 05 8C 00 00 02 58 00 00 05 A0 01 E0 04 C4 05 DC 0D AC 0B B8 00 02 00 01 00 00 00 FF 00 00 00 FF 00 00 00 FF 00 00 00 64 00 FF 39 65 | {}
20250518T082616 | 94 | B0 03 00 58 05 72 00 00 00 00 00 00 01 56 00 00 05 2D 00 69 05 2F FF 97 00 62 15 EF 00 F0 00 00 00 02 05 27 00 60 08 A8 00 64 00 64 FF FF 00 00 00 00 00 FA 00 00 00 00 00 00 00 00 00 01 00 01 00 00 00 00 00 00 00 00 00 00 00 00 00 00 00 00 00 00 00 00 00 00 00 01 00 C0 FF FF 0C F9 | {'solar_input_current': 0.0, 'solar_input_voltage_TBC': 13.94, 'aux_input_voltage_TBC': 3.42, 'aux_input_current': 0.0, 'output_voltage': 13.25, 'output_current': 1.05, 'battery_voltage': 13.27, 'battery_current': -1.05, 'battery_soc': 98, 'fresh_tank_1_pc': 100, 'fresh_tank_2_pc': 100}
20250518T082617 | 52 | B0 03 00 40 00 26 DE 25 B0 03 00 26 00 03 00 03 00 03 00 01 00 01 00 01 00 01 00 01 00 00 00 00 00 00 00 00 00 00 00 00 00 00 00 00 00 64 00 64 00 64 D2 C9 | {}
20250518T082619 | 74 | B0 03 00 44 03 01 00 B0 00 00 00 03 00 05 03 E8 04 B0 04 88 06 40 00 1E 00 00 05 8C 05 46 05 8C 00 00 02 58 00 00 05 A0 01 E0 04 C4 05 DC 0D AC 0B B8 00 02 00 01 00 00 00 FF 00 00 00 FF 00 00 00 FF 00 00 00 64 00 FF 39 65 | {}
20250518T082619 | 94 | B0 03 00 58 09 4A 00 00 00 00 00 00 01 36 00 00 05 2B 00 84 05 2D FF 7C 00 62 0C A7 00 F0 00 00 00 02 05 25 00 60 18 AB 00 64 00 64 FF FF 00 00 00 00 00 FA 00 00 00 00 00 00 00 00 00 01 00 01 00 00 00 00 00 00 00 00 00 00 00 00 00 00 00 00 00 00 00 00 00 00 00 01 00 C0 FF FF 58 EB | {'solar_input_current': 0.0, 'solar_input_voltage_TBC': 23.78, 'aux_input_voltage_TBC': 3.1, 'aux_input_current': 0.0, 'output_voltage': 13.23, 'output_current': 1.32, 'battery_voltage': 13.25, 'battery_current': -1.32, 'battery_soc': 98, 'fresh_tank_1_pc': 100, 'fresh_tank_2_pc': 100}
20250518T082619 | 52 | B0 03 00 40 00 26 DE 25 B0 03 00 26 00 03 00 03 00 03 00 01 00 01 00 01 00 01 00 01 00 00 00 00 00 00 00 00 00 00 00 00 00 00 00 00 00 64 00 64 00 64 D2 C9 | {}
20250518T082621 | 82 | B0 03 00 08 00 44 DF DA B0 03 00 44 03 01 00 B0 00 00 00 03 00 05 03 E8 04 B0 04 88 06 40 00 1E 00 00 05 8C 05 46 05 8C 00 00 02 58 00 00 05 A0 01 E0 04 C4 05 DC 0D AC 0B B8 00 02 00 01 00 00 00 FF 00 00 00 FF 00 00 00 FF 00 00 00 64 00 FF 39 65 | {}
20250518T082622 | 94 | B0 03 00 58 07 C8 00 4A 00 00 00 00 01 19 00 00 05 2E 00 96 05 30 FF B5 00 62 27 0F 00 F0 00 00 00 02 05 26 00 60 08 A8 00 64 00 64 FF FF 00 00 00 00 00 FA 00 00 00 00 00 00 00 00 00 01 00 01 00 00 00 00 00 00 00 00 00 00 00 00 00 00 00 00 00 00 00 00 00 00 00 01 00 C0 FF FF C6 71 | {'solar_input_current': 0.74, 'solar_input_voltage_TBC': 19.92, 'aux_input_voltage_TBC': 2.81, 'aux_input_current': 0.0, 'output_voltage': 13.26, 'output_current': 1.5, 'battery_voltage': 13.28, 'battery_current': -0.75, 'battery_soc': 98, 'fresh_tank_1_pc': 100, 'fresh_tank_2_pc': 100}
20250518T082622 | 44 | B0 03 00 26 00 03 00 03 00 03 00 01 00 01 00 01 00 01 00 01 00 00 00 00 00 00 00 00 00 00 00 00 00 00 00 00 00 64 00 64 00 64 D2 C9 | {'PMDCS_input_voltage': 0.01, 'PMDCS_output_voltage': 0.0, 'PMDCS_current': 0.0}
20250518T082624 | 74 | B0 03 00 44 03 01 00 B0 00 00 00 03 00 05 03 E8 04 B0 04 88 06 40 00 1E 00 00 05 8C 05 46 05 8C 00 00 02 58 00 00 05 A0 01 E0 04 C4 05 DC 0D AC 0B B8 00 02 00 01 00 00 00 FF 00 00 00 FF 00 00 00 FF 00 00 00 64 00 FF 39 65 | {}
20250518T082625 | 94 | B0 03 00 58 05 DE 00 2E 00 00 00 00 00 FF 00 00 05 2D 00 91 05 2F FF 9D 00 62 17 43 00 F0 00 00 00 02 05 27 00 60 08 A8 00 64 00 64 FF FF 00 00 00 00 00 FA 00 00 00 00 00 00 00 00 00 01 00 01 00 00 00 00 00 00 00 00 00 00 00 00 00 00 00 00 00 00 00 00 00 00 00 01 00 C0 FF FF 92 0C | {'solar_input_current': 0.46, 'solar_input_voltage_TBC': 15.02, 'aux_input_voltage_TBC': 2.55, 'aux_input_current': 0.0, 'output_voltage': 13.25, 'output_current': 1.45, 'battery_voltage': 13.27, 'battery_current': -0.99, 'battery_soc': 98, 'fresh_tank_1_pc': 100, 'fresh_tank_2_pc': 100}
20250518T082625 | 52 | B0 03 00 40 00 26 DE 25 B0 03 00 26 00 03 00 03 00 03 00 01 00 01 00 01 00 01 00 01 00 00 00 00 00 00 00 00 00 00 00 00 00 00 00 00 00 64 00 64 00 64 D2 C9 | {}
20250518T082627 | 82 | B0 03 00 08 00 44 DF DA B0 03 00 44 03 01 00 B0 00 00 00 03 00 05 03 E8 04 B0 04 88 06 40 00 1E 00 00 05 8C 05 46 05 8C 00 00 02 58 00 00 05 A0 01 E0 04 C4 05 DC 0D AC 0B B8 00 02 00 01 00 00 00 FF 00 00 00 FF 00 00 00 FF 00 00 00 64 00 FF 39 65 | {}
20250518T082627 | 94 | B0 03 00 58 05 72 00 00 00 00 00 00 00 E2 00 00 05 2D 00 69 05 2F FF 97 00 62 15 EF 00 F0 00 00 00 02 05 27 00 60 08 A8 00 64 00 64 FF FF 00 00 00 00 00 FA 00 00 00 00 00 00 00 00 00 01 00 01 00 00 00 00 00 00 00 00 00 00 00 00 00 00 00 00 00 00 00 00 00 00 00 01 00 C0 FF FF F7 17 | {'solar_input_current': 0.0, 'solar_input_voltage_TBC': 13.94, 'aux_input_voltage_TBC': 2.26, 'aux_input_current': 0.0, 'output_voltage': 13.25, 'output_current': 1.05, 'battery_voltage': 13.27, 'battery_current': -1.05, 'battery_soc': 98, 'fresh_tank_1_pc': 100, 'fresh_tank_2_pc': 100}
20250518T082628 | 52 | B0 03 00 40 00 26 DE 25 B0 03 00 26 00 03 00 03 00 03 00 01 00 01 00 01 00 01 00 01 00 00 00 00 00 00 00 00 00 00 00 00 00 00 00 00 00 64 00 64 00 64 D2 C9 | {}
20250518T082629 | 20 | B0 10 01 0E 00 02 00 01 52 AE B0 10 01 0E 00 02 00 01 52 AE | {}
20250518T082630 | 74 | B0 03 00 44 03 01 00 B0 00 00 00 03 00 05 03 E8 04 B0 04 88 06 40 00 1E 00 00 05 8C 05 46 05 8C 00 00 02 58 00 00 05 A0 01 E0 04 C4 05 DC 0D AC 0B B8 00 02 00 01 00 00 00 FF 00 00 00 FF 00 00 00 FF 00 00 00 64 00 FF 39 65 | {}
20250518T082630 | 94 | B0 03 00 58 05 72 00 00 00 00 00 00 00 CD 00 00 05 2D 00 6A 05 2F FF 96 00 62 15 BA 00 F0 00 00 00 01 05 25 00 60 08 A8 00 64 00 64 FF FF 00 00 00 00 00 FA 00 00 00 00 00 00 00 00 00 01 00 01 00 00 00 00 00 00 00 00 00 00 00 00 00 00 00 00 00 00 00 00 00 00 00 01 00 C0 FF FF 0B 94 | {'solar_input_current': 0.0, 'solar_input_voltage_TBC': 13.94, 'aux_input_voltage_TBC': 2.05, 'aux_input_current': 0.0, 'output_voltage': 13.25, 'output_current': 1.06, 'battery_voltage': 13.27, 'battery_current': -1.06, 'battery_soc': 98, 'fresh_tank_1_pc': 100, 'fresh_tank_2_pc': 100}
20250518T082631 | 52 | B0 03 00 40 00 26 DE 25 B0 03 00 26 00 03 00 03 00 03 00 01 00 01 00 01 00 01 00 01 00 00 00 00 00 00 00 00 00 00 00 00 00 00 00 00 00 64 00 64 00 64 D2 C9 | {}
20250518T082632 | 74 | B0 03 00 44 03 01 00 B0 00 00 00 03 00 05 03 E8 04 B0 04 88 06 40 00 1E 00 00 05 8C 05 46 05 8C 00 00 02 58 00 00 05 A0 01 E0 04 C4 05 DC 0D AC 0B B8 00 02 00 01 00 00 00 FF 00 00 00 FF 00 00 00 FF 00 00 00 64 00 FF 39 65 | {}
20250518T082633 | 102 | B0 03 01 00 00 58 5E 2D B0 03 00 58 05 72 00 00 00 00 00 00 00 BC 00 00 05 2D 00 68 05 2F FF 98 00 62 16 24 00 F0 00 00 00 02 05 25 00 60 08 A8 00 64 00 64 FF FF 00 00 00 00 00 FA 00 00 00 00 00 00 00 00 00 01 00 01 00 00 00 00 00 00 00 00 00 00 00 00 00 00 00 00 00 00 00 00 00 00 00 01 00 C0 FF FF 76 90 | {'solar_input_current': 0.0, 'solar_input_voltage_TBC': 13.94, 'aux_input_voltage_TBC': 1.88, 'aux_input_current': 0.0, 'output_voltage': 13.25, 'output_current': 1.04, 'battery_voltage': 13.27, 'battery_current': -1.04, 'battery_soc': 98, 'fresh_tank_1_pc': 100, 'fresh_tank_2_pc': 100}
20250518T082633 | 52 | B0 03 00 40 00 26 DE 25 B0 03 00 26 00 03 00 03 00 03 00 01 00 01 00 01 00 01 00 01 00 00 00 00 00 00 00 00 00 00 00 00 00 00 00 00 00 64 00 64 00 64 D2 C9 | {}
20250518T082635 | 74 | B0 03 00 44 03 01 00 B0 00 00 00 03 00 05 03 E8 04 B0 04 88 06 40 00 1E 00 00 05 8C 05 46 05 8C 00 00 02 58 00 00 05 A0 01 E0 04 C4 05 DC 0D AC 0B B8 00 02 00 01 00 00 00 FF 00 00 00 FF 00 00 00 FF 00 00 00 64 00 FF 39 65 | {}
20250518T082636 | 94 | B0 03 00 58 05 72 00 00 00 00 00 00 00 AB 00 00 05 2D 00 69 05 2F FF 97 00 62 15 EE 00 F0 00 00 00 02 05 25 00 60 08 A8 00 64 00 64 FF FF 00 00 00 00 00 FA 00 00 00 00 00 00 00 00 00 01 00 01 00 00 00 00 00 00 00 00 00 00 00 00 00 00 00 00 00 00 00 00 00 00 00 01 00 C0 FF FF ED 9A | {'solar_input_current': 0.0, 'solar_input_voltage_TBC': 13.94, 'aux_input_voltage_TBC': 1.71, 'aux_input_current': 0.0, 'output_voltage': 13.25, 'output_current': 1.05, 'battery_voltage': 13.27, 'battery_current': -1.05, 'battery_soc': 98, 'fresh_tank_1_pc': 100, 'fresh_tank_2_pc': 100}
20250518T082636 | 52 | B0 03 00 40 00 26 DE 25 B0 03 00 26 00 03 00 03 00 03 00 01 00 01 00 01 00 01 00 01 00 00 00 00 00 00 00 00 00 00 00 00 00 00 00 00 00 64 00 64 00 64 D2 C9 | {}
20250518T082638 | 74 | B0 03 00 44 03 01 00 B0 00 00 00 03 00 05 03 E8 04 B0 04 88 06 40 00 1E 00 00 05 8C 05 46 05 8C 00 00 02 58 00 00 05 A0 01 E0 04 C4 05 DC 0D AC 0B B8 00 02 00 01 00 00 00 FF 00 00 00 FF 00 00 00 FF 00 00 00 64 00 FF 39 65 | {}
20250518T082638 | 94 | B0 03 00 58 05 72 00 00 00 00 00 00 00 9E 00 00 05 2D 00 68 05 2F FF 98 00 62 16 24 00 F0 00 00 00 02 05 25 00 60 08 A8 00 64 00 64 FF FF 00 00 00 00 00 FA 00 00 00 00 00 00 00 00 00 01 00 01 00 00 00 00 00 00 00 00 00 00 00 00 00 00 00 00 00 00 00 00 00 00 00 01 00 C0 FF FF 87 8F | {'solar_input_current': 0.0, 'solar_input_voltage_TBC': 13.94, 'aux_input_voltage_TBC': 1.58, 'aux_input_current': 0.0, 'output_voltage': 13.25, 'output_current': 1.04, 'battery_voltage': 13.27, 'battery_current': -1.04, 'battery_soc': 98, 'fresh_tank_1_pc': 100, 'fresh_tank_2_pc': 100}
20250518T082639 | 52 | B0 03 00 40 00 26 DE 25 B0 03 00 26 00 03 00 03 00 03 00 01 00 01 00 01 00 01 00 01 00 00 00 00 00 00 00 00 00 00 00 00 00 00 00 00 00 64 00 64 00 64 D2 C9 | {}
20250518T082641 | 74 | B0 03 00 44 03 01 00 B0 00 00 00 03 00 05 03 E8 04 B0 04 88 06 40 00 1E 00 00 05 8C 05 46 05 8C 00 00 02 58 00 00 05 A0 01 E0 04 C4 05 DC 0D AC 0B B8 00 02 00 01 00 00 00 FF 00 00 00 FF 00 00 00 FF 00 00 00 64 00 FF 39 65 | {}
20250518T082641 | 94 | B0 03 00 58 05 71 00 00 00 00 00 00 00 93 00 00 05 2D 00 68 05 2F FF 98 00 62 16 24 00 F0 00 00 00 02 05 25 00 60 08 A8 00 64 00 64 FF FF 00 00 00 00 00 FA 00 00 00 00 00 00 00 00 00 01 00 01 00 00 00 00 00 00 00 00 00 00 00 00 00 00 00 00 00 00 00 00 00 00 00 01 00 C0 FF FF 81 ED | {'solar_input_current': 0.0, 'solar_input_voltage_TBC': 13.93, 'aux_input_voltage_TBC': 1.47, 'aux_input_current': 0.0, 'output_voltage': 13.25, 'output_current': 1.04, 'battery_voltage': 13.27, 'battery_current': -1.04, 'battery_soc': 98, 'fresh_tank_1_pc': 100, 'fresh_tank_2_pc': 100}
20250518T082641 | 52 | B0 03 00 40 00 26 DE 25 B0 03 00 26 00 03 00 03 00 03 00 01 00 01 00 01 00 01 00 01 00 00 00 00 00 00 00 00 00 00 00 00 00 00 00 00 00 64 00 64 00 64 D2 C9 | {}
20250518T082643 | 82 | B0 03 00 08 00 44 DF DA B0 03 00 44 03 01 00 B0 00 00 00 03 00 05 03 E8 04 B0 04 88 06 40 00 1E 00 00 05 8C 05 46 05 8C 00 00 02 58 00 00 05 A0 01 E0 04 C4 05 DC 0D AC 0B B8 00 02 00 01 00 00 00 FF 00 00 00 FF 00 00 00 FF 00 00 00 64 00 FF 39 65 | {}
20250518T082644 | 94 | B0 03 00 58 05 72 00 00 00 00 00 00 00 89 00 00 05 2D 00 68 05 2F FF 98 00 62 16 24 00 F0 00 00 00 02 05 25 00 60 08 A8 00 64 00 64 FF FF 00 00 00 00 00 FA 00 00 00 00 00 00 00 00 00 01 00 01 00 00 00 00 00 00 00 00 00 00 00 00 00 00 00 00 00 00 00 00 00 00 00 01 00 C0 FF FF 5D 22 | {'solar_input_current': 0.0, 'solar_input_voltage_TBC': 13.94, 'aux_input_voltage_TBC': 1.37, 'aux_input_current': 0.0, 'output_voltage': 13.25, 'output_current': 1.04, 'battery_voltage': 13.27, 'battery_current': -1.04, 'battery_soc': 98, 'fresh_tank_1_pc': 100, 'fresh_tank_2_pc': 100}
20250518T082644 | 52 | B0 03 00 40 00 26 DE 25 B0 03 00 26 00 03 00 03 00 03 00 01 00 01 00 01 00 01 00 01 00 00 00 00 00 00 00 00 00 00 00 00 00 00 00 00 00 64 00 64 00 64 D2 C9 | {}
20250518T082646 | 74 | B0 03 00 44 03 01 00 B0 00 00 00 03 00 05 03 E8 04 B0 04 88 06 40 00 1E 00 00 05 8C 05 46 05 8C 00 00 02 58 00 00 05 A0 01 E0 04 C4 05 DC 0D AC 0B B8 00 02 00 01 00 00 00 FF 00 00 00 FF 00 00 00 FF 00 00 00 64 00 FF 39 65 | {}
20250518T082646 | 94 | B0 03 00 58 05 72 00 00 00 00 00 00 00 7D 00 00 05 2D 00 68 05 2F FF 98 00 62 16 24 00 F0 00 00 00 02 05 27 00 60 08 A8 00 64 00 64 FF FF 00 00 00 00 00 FA 00 00 00 00 00 00 00 00 00 01 00 01 00 00 00 00 00 00 00 00 00 00 00 00 00 00 00 00 00 00 00 00 00 00 00 01 00 C0 FF FF 99 F2 | {'solar_input_current': 0.0, 'solar_input_voltage_TBC': 13.94, 'aux_input_voltage_TBC': 1.25, 'aux_input_current': 0.0, 'output_voltage': 13.25, 'output_current': 1.04, 'battery_voltage': 13.27, 'battery_current': -1.04, 'battery_soc': 98, 'fresh_tank_1_pc': 100, 'fresh_tank_2_pc': 100}
20250518T082647 | 52 | B0 03 00 40 00 26 DE 25 B0 03 00 26 00 03 00 03 00 03 00 01 00 01 00 01 00 01 00 01 00 00 00 00 00 00 00 00 00 00 00 00 00 00 00 00 00 64 00 64 00 64 D2 C9 | {}
20250518T082649 | 82 | B0 03 00 08 00 44 DF DA B0 03 00 44 03 01 00 B0 00 00 00 03 00 05 03 E8 04 B0 04 88 06 40 00 1E 00 00 05 8C 05 46 05 8C 00 00 02 58 00 00 05 A0 01 E0 04 C4 05 DC 0D AC 0B B8 00 02 00 01 00 00 00 FF 00 00 00 FF 00 00 00 FF 00 00 00 64 00 FF 39 65 | {}
20250518T082649 | 94 | B0 03 00 58 05 72 00 00 00 00 00 00 00 74 00 00 05 2D 00 68 05 2F FF 98 00 62 16 24 00 F0 00 00 00 02 05 25 00 60 08 A8 00 64 00 64 FF FF 00 00 00 00 00 FA 00 00 00 00 00 00 00 00 00 01 00 01 00 00 00 00 00 00 00 00 00 00 00 00 00 00 00 00 00 00 00 00 00 00 00 01 00 C0 FF FF 92 D3 | {'solar_input_current': 0.0, 'solar_input_voltage_TBC': 13.94, 'aux_input_voltage_TBC': 1.16, 'aux_input_current': 0.0, 'output_voltage': 13.25, 'output_current': 1.04, 'battery_voltage': 13.27, 'battery_current': -1.04, 'battery_soc': 98, 'fresh_tank_1_pc': 100, 'fresh_tank_2_pc': 100}
20250518T082649 | 52 | B0 03 00 40 00 26 DE 25 B0 03 00 26 00 03 00 03 00 03 00 01 00 01 00 01 00 01 00 01 00 00 00 00 00 00 00 00 00 00 00 00 00 00 00 00 00 64 00 64 00 64 D2 C9 | {}
20250518T082651 | 74 | B0 03 00 44 03 01 00 B0 00 00 00 03 00 05 03 E8 04 B0 04 88 06 40 00 1E 00 00 05 8C 05 46 05 8C 00 00 02 58 00 00 05 A0 01 E0 04 C4 05 DC 0D AC 0B B8 00 02 00 01 00 00 00 FF 00 00 00 FF 00 00 00 FF 00 00 00 64 00 FF 39 65 | {}
20250518T082652 | 94 | B0 03 00 58 05 72 00 00 00 00 00 00 00 6C 00 00 05 2D 00 68 05 2F FF 97 00 62 15 EE 00 F0 00 00 00 02 05 25 00 60 08 A8 00 64 00 64 FF FF 00 00 00 00 00 FA 00 00 00 00 00 00 00 00 00 01 00 01 00 00 00 00 00 00 00 00 00 00 00 00 00 00 00 00 00 00 00 00 00 00 00 01 00 C0 FF FF 0D AD | {'solar_input_current': 0.0, 'solar_input_voltage_TBC': 13.94, 'aux_input_voltage_TBC': 1.08, 'aux_input_current': 0.0, 'output_voltage': 13.25, 'output_current': 1.04, 'battery_voltage': 13.27, 'battery_current': -1.05, 'battery_soc': 98, 'fresh_tank_1_pc': 100, 'fresh_tank_2_pc': 100}
20250518T082652 | 52 | B0 03 00 40 00 26 DE 25 B0 03 00 26 00 03 00 03 00 03 00 01 00 01 00 01 00 01 00 01 00 00 00 00 00 00 00 00 00 00 00 00 00 00 00 00 00 64 00 64 00 64 D2 C9 | {}
20250518T082654 | 74 | B0 03 00 44 03 01 00 B0 00 00 00 03 00 05 03 E8 04 B0 04 88 06 40 00 1E 00 00 05 8C 05 46 05 8C 00 00 02 58 00 00 05 A0 01 E0 04 C4 05 DC 0D AC 0B B8 00 02 00 01 00 00 00 FF 00 00 00 FF 00 00 00 FF 00 00 00 64 00 FF 39 65 | {}
20250518T082655 | 94 | B0 03 00 58 05 72 00 00 00 00 00 00 00 65 00 00 05 2D 00 68 05 2F FF 98 00 62 16 24 00 F0 00 00 00 02 05 25 00 60 18 AB 00 64 00 64 FF FF 00 00 00 00 00 FA 00 00 00 00 00 00 00 00 00 01 00 01 00 00 00 00 00 00 00 00 00 00 00 00 00 00 00 00 00 00 00 00 00 00 00 01 00 C0 FF FF 98 78 | {'solar_input_current': 0.0, 'solar_input_voltage_TBC': 13.94, 'aux_input_voltage_TBC': 1.01, 'aux_input_current': 0.0, 'output_voltage': 13.25, 'output_current': 1.04, 'battery_voltage': 13.27, 'battery_current': -1.04, 'battery_soc': 98, 'fresh_tank_1_pc': 100, 'fresh_tank_2_pc': 100}
20250518T082655 | 52 | B0 03 00 40 00 26 DE 25 B0 03 00 26 00 03 00 03 00 03 00 01 00 01 00 01 00 01 00 01 00 00 00 00 00 00 00 00 00 00 00 00 00 00 00 00 00 64 00 64 00 64 D2 C9 | {}
20250518T082657 | 82 | B0 03 00 08 00 44 DF DA B0 03 00 44 03 01 00 B0 00 00 00 03 00 05 03 E8 04 B0 04 88 06 40 00 1E 00 00 05 8C 05 46 05 8C 00 00 02 58 00 00 05 A0 01 E0 04 C4 05 DC 0D AC 0B B8 00 02 00 01 00 00 00 FF 00 00 00 FF 00 00 00 FF 00 00 00 64 00 FF 39 65 | {}
